v1	V(n001)	I(D1)	I(D2)
2.000000000000000e+000	2.000000e+000	2.161454e-005	2.418926e-004
2.001000000000000e+000	2.001000e+000	2.189587e-005	2.446447e-004
2.002000000000000e+000	2.002000e+000	2.218086e-005	2.474281e-004
2.003000000000000e+000	2.003000e+000	2.246956e-005	2.502431e-004
2.004000000000000e+000	2.004000e+000	2.276202e-005	2.530901e-004
2.005000000000000e+000	2.005000e+000	2.305829e-005	2.559695e-004
2.006000000000000e+000	2.006000e+000	2.335841e-005	2.588815e-004
2.007000000000000e+000	2.007000e+000	2.366244e-005	2.618267e-004
2.008000000000000e+000	2.008000e+000	2.397042e-005	2.648054e-004
2.009000000000000e+000	2.009000e+000	2.428241e-005	2.678179e-004
2.010000000000000e+000	2.010000e+000	2.459847e-005	2.708647e-004
2.011000000000000e+000	2.011000e+000	2.491863e-005	2.739461e-004
2.012000000000000e+000	2.012000e+000	2.524297e-005	2.770625e-004
2.013000000000000e+000	2.013000e+000	2.557152e-005	2.802143e-004
2.014000000000000e+000	2.014000e+000	2.590435e-005	2.834019e-004
2.015000000000000e+000	2.015000e+000	2.624151e-005	2.866258e-004
2.016000000000000e+000	2.016000e+000	2.658306e-005	2.898863e-004
2.017000000000000e+000	2.017000e+000	2.692905e-005	2.931838e-004
2.018000000000000e+000	2.018000e+000	2.727955e-005	2.965188e-004
2.019000000000000e+000	2.019000e+000	2.763461e-005	2.998918e-004
2.020000000000000e+000	2.020000e+000	2.799429e-005	3.033030e-004
2.021000000000000e+000	2.021000e+000	2.835865e-005	3.067530e-004
2.022000000000000e+000	2.022000e+000	2.872775e-005	3.102422e-004
2.023000000000000e+000	2.023000e+000	2.910165e-005	3.137711e-004
2.024000000000000e+000	2.024000e+000	2.948042e-005	3.173400e-004
2.025000000000000e+000	2.025000e+000	2.986412e-005	3.209495e-004
2.026000000000000e+000	2.026000e+000	3.025282e-005	3.246000e-004
2.027000000000000e+000	2.027000e+000	3.064657e-005	3.282920e-004
2.028000000000000e+000	2.028000e+000	3.104544e-005	3.320259e-004
2.029000000000000e+000	2.029000e+000	3.144951e-005	3.358022e-004
2.030000000000000e+000	2.030000e+000	3.185884e-005	3.396214e-004
2.031000000000000e+000	2.031000e+000	3.227348e-005	3.434840e-004
2.032000000000000e+000	2.032000e+000	3.269353e-005	3.473905e-004
2.033000000000000e+000	2.033000e+000	3.311905e-005	3.513414e-004
2.034000000000000e+000	2.034000e+000	3.355010e-005	3.553371e-004
2.035000000000000e+000	2.035000e+000	3.398676e-005	3.593782e-004
2.036000000000000e+000	2.036000e+000	3.442910e-005	3.634653e-004
2.037000000000000e+000	2.037000e+000	3.487720e-005	3.675987e-004
2.038000000000000e+000	2.038000e+000	3.533113e-005	3.717791e-004
2.039000000000000e+000	2.039000e+000	3.579097e-005	3.760069e-004
2.040000000000000e+000	2.040000e+000	3.625679e-005	3.802828e-004
2.041000000000000e+000	2.041000e+000	3.672867e-005	3.846072e-004
2.042000000000000e+000	2.042000e+000	3.720670e-005	3.889808e-004
2.043000000000000e+000	2.043000e+000	3.769094e-005	3.934040e-004
2.044000000000000e+000	2.044000e+000	3.818149e-005	3.978774e-004
2.045000000000000e+000	2.045000e+000	3.867842e-005	4.024016e-004
2.046000000000000e+000	2.046000e+000	3.918181e-005	4.069772e-004
2.047000000000000e+000	2.047000e+000	3.969176e-005	4.116048e-004
2.048000000000000e+000	2.048000e+000	4.020834e-005	4.162849e-004
2.049000000000000e+000	2.049000e+000	4.073165e-005	4.210181e-004
2.050000000000000e+000	2.050000e+000	4.126176e-005	4.258050e-004
2.051000000000000e+000	2.051000e+000	4.179877e-005	4.306463e-004
2.052000000000000e+000	2.052000e+000	4.234277e-005	4.355426e-004
2.053000000000000e+000	2.053000e+000	4.289385e-005	4.404944e-004
2.054000000000000e+000	2.054000e+000	4.345210e-005	4.455025e-004
2.055000000000000e+000	2.055000e+000	4.401761e-005	4.505674e-004
2.056000000000000e+000	2.056000e+000	4.459048e-005	4.556897e-004
2.057000000000000e+000	2.057000e+000	4.517081e-005	4.608703e-004
2.058000000000000e+000	2.058000e+000	4.575869e-005	4.661096e-004
2.059000000000000e+000	2.059000e+000	4.635421e-005	4.714084e-004
2.060000000000000e+000	2.060000e+000	4.695749e-005	4.767673e-004
2.061000000000000e+000	2.061000e+000	4.756861e-005	4.821870e-004
2.062000000000000e+000	2.062000e+000	4.818769e-005	4.876683e-004
2.063000000000000e+000	2.063000e+000	4.881482e-005	4.932117e-004
2.064000000000000e+000	2.064000e+000	4.945011e-005	4.988180e-004
2.065000000000000e+000	2.065000e+000	5.009367e-005	5.044880e-004
2.066000000000000e+000	2.066000e+000	5.074560e-005	5.102223e-004
2.067000000000000e+000	2.067000e+000	5.140602e-005	5.160216e-004
2.068000000000000e+000	2.068000e+000	5.207502e-005	5.218867e-004
2.069000000000000e+000	2.069000e+000	5.275273e-005	5.278184e-004
2.070000000000000e+000	2.070000e+000	5.343926e-005	5.338173e-004
2.071000000000000e+000	2.071000e+000	5.413473e-005	5.398844e-004
2.072000000000000e+000	2.072000e+000	5.483924e-005	5.460202e-004
2.073000000000000e+000	2.073000e+000	5.555292e-005	5.522256e-004
2.074000000000000e+000	2.074000e+000	5.627588e-005	5.585015e-004
2.075000000000000e+000	2.075000e+000	5.700824e-005	5.648484e-004
2.076000000000000e+000	2.076000e+000	5.775015e-005	5.712674e-004
2.077000000000000e+000	2.077000e+000	5.850169e-005	5.777592e-004
2.078000000000000e+000	2.078000e+000	5.926302e-005	5.843246e-004
2.079000000000000e+000	2.079000e+000	6.003426e-005	5.909644e-004
2.080000000000000e+000	2.080000e+000	6.081552e-005	5.976795e-004
2.081000000000000e+000	2.081000e+000	6.160695e-005	6.044708e-004
2.082000000000000e+000	2.082000e+000	6.240868e-005	6.113391e-004
2.083000000000000e+000	2.083000e+000	6.322084e-005	6.182852e-004
2.084000000000000e+000	2.084000e+000	6.404357e-005	6.253101e-004
2.085000000000000e+000	2.085000e+000	6.487700e-005	6.324146e-004
2.086000000000000e+000	2.086000e+000	6.572127e-005	6.395997e-004
2.087000000000000e+000	2.087000e+000	6.657653e-005	6.468662e-004
2.088000000000000e+000	2.088000e+000	6.744290e-005	6.542151e-004
2.089000000000000e+000	2.089000e+000	6.832056e-005	6.616472e-004
2.090000000000000e+000	2.090000e+000	6.920963e-005	6.691635e-004
2.091000000000000e+000	2.091000e+000	7.011027e-005	6.767651e-004
2.092000000000000e+000	2.092000e+000	7.102262e-005	6.844528e-004
2.093000000000000e+000	2.093000e+000	7.194684e-005	6.922277e-004
2.094000000000000e+000	2.094000e+000	7.288309e-005	7.000905e-004
2.095000000000000e+000	2.095000e+000	7.383151e-005	7.080426e-004
2.096000000000000e+000	2.096000e+000	7.479228e-005	7.160847e-004
2.097000000000000e+000	2.097000e+000	7.576554e-005	7.242179e-004
2.098000000000000e+000	2.098000e+000	7.675146e-005	7.324432e-004
2.099000000000000e+000	2.099000e+000	7.775021e-005	7.407618e-004
2.100000000000000e+000	2.100000e+000	7.876195e-005	7.491745e-004
2.101000000000000e+000	2.101000e+000	7.978685e-005	7.576825e-004
2.102000000000000e+000	2.102000e+000	8.082508e-005	7.662869e-004
2.103000000000000e+000	2.103000e+000	8.187682e-005	7.749887e-004
2.104000000000000e+000	2.104000e+000	8.294224e-005	7.837891e-004
2.105000000000000e+000	2.105000e+000	8.402152e-005	7.926891e-004
2.106000000000000e+000	2.106000e+000	8.511484e-005	8.016899e-004
2.107000000000000e+000	2.107000e+000	8.622238e-005	8.107926e-004
2.108000000000000e+000	2.108000e+000	8.734432e-005	8.199983e-004
2.109000000000000e+000	2.109000e+000	8.848085e-005	8.293083e-004
2.110000000000000e+000	2.110000e+000	8.963218e-005	8.387237e-004
2.111000000000000e+000	2.111000e+000	9.079847e-005	8.482456e-004
2.112000000000000e+000	2.112000e+000	9.197994e-005	8.578753e-004
2.113000000000000e+000	2.113000e+000	9.317677e-005	8.676139e-004
2.114000000000000e+000	2.114000e+000	9.438917e-005	8.774629e-004
2.115000000000000e+000	2.115000e+000	9.561735e-005	8.874232e-004
2.116000000000000e+000	2.116000e+000	9.686148e-005	8.974962e-004
2.117000000000000e+000	2.117000e+000	9.812181e-005	9.076833e-004
2.118000000000000e+000	2.118000e+000	9.939853e-005	9.179855e-004
2.119000000000000e+000	2.119000e+000	1.006918e-004	9.284043e-004
2.120000000000000e+000	2.120000e+000	1.020020e-004	9.389410e-004
2.121000000000000e+000	2.121000e+000	1.033292e-004	9.495968e-004
2.122000000000000e+000	2.122000e+000	1.046736e-004	9.603732e-004
2.123000000000000e+000	2.123000e+000	1.060355e-004	9.712714e-004
2.124000000000000e+000	2.124000e+000	1.074152e-004	9.822929e-004
2.125000000000000e+000	2.125000e+000	1.088128e-004	9.934390e-004
2.126000000000000e+000	2.126000e+000	1.102285e-004	1.004711e-003
2.127000000000000e+000	2.127000e+000	1.116627e-004	1.016111e-003
2.128000000000000e+000	2.128000e+000	1.131155e-004	1.027639e-003
2.129000000000000e+000	2.129000e+000	1.145872e-004	1.039298e-003
2.130000000000000e+000	2.130000e+000	1.160781e-004	1.051088e-003
2.131000000000000e+000	2.131000e+000	1.175883e-004	1.063012e-003
2.132000000000000e+000	2.132000e+000	1.191182e-004	1.075071e-003
2.133000000000000e+000	2.133000e+000	1.206680e-004	1.087265e-003
2.134000000000000e+000	2.134000e+000	1.222379e-004	1.099598e-003
2.135000000000000e+000	2.135000e+000	1.238282e-004	1.112070e-003
2.136000000000000e+000	2.136000e+000	1.254392e-004	1.124683e-003
2.137000000000000e+000	2.137000e+000	1.270712e-004	1.137438e-003
2.138000000000000e+000	2.138000e+000	1.287244e-004	1.150337e-003
2.139000000000000e+000	2.139000e+000	1.303991e-004	1.163382e-003
2.140000000000000e+000	2.140000e+000	1.320955e-004	1.176575e-003
2.141000000000000e+000	2.141000e+000	1.338140e-004	1.189916e-003
2.142000000000000e+000	2.142000e+000	1.355549e-004	1.203408e-003
2.143000000000000e+000	2.143000e+000	1.373184e-004	1.217052e-003
2.144000000000000e+000	2.144000e+000	1.391048e-004	1.230850e-003
2.145000000000000e+000	2.145000e+000	1.409145e-004	1.244804e-003
2.146000000000000e+000	2.146000e+000	1.427476e-004	1.258916e-003
2.147000000000000e+000	2.147000e+000	1.446047e-004	1.273187e-003
2.148000000000000e+000	2.148000e+000	1.464858e-004	1.287619e-003
2.149000000000000e+000	2.149000e+000	1.483914e-004	1.302213e-003
2.150000000000000e+000	2.150000e+000	1.503218e-004	1.316972e-003
2.151000000000000e+000	2.151000e+000	1.522773e-004	1.331898e-003
2.152000000000000e+000	2.152000e+000	1.542582e-004	1.346992e-003
2.153000000000000e+000	2.153000e+000	1.562648e-004	1.362257e-003
2.154000000000000e+000	2.154000e+000	1.582976e-004	1.377693e-003
2.155000000000000e+000	2.155000e+000	1.603567e-004	1.393304e-003
2.156000000000000e+000	2.156000e+000	1.624427e-004	1.409090e-003
2.157000000000000e+000	2.157000e+000	1.645557e-004	1.425055e-003
2.158000000000000e+000	2.158000e+000	1.666962e-004	1.441199e-003
2.159000000000000e+000	2.159000e+000	1.688645e-004	1.457526e-003
2.160000000000000e+000	2.160000e+000	1.710611e-004	1.474036e-003
2.161000000000000e+000	2.161000e+000	1.732861e-004	1.490732e-003
2.162000000000000e+000	2.162000e+000	1.755401e-004	1.507617e-003
2.163000000000000e+000	2.163000e+000	1.778234e-004	1.524692e-003
2.164000000000000e+000	2.164000e+000	1.801363e-004	1.541959e-003
2.165000000000000e+000	2.165000e+000	1.824794e-004	1.559420e-003
2.166000000000000e+000	2.166000e+000	1.848528e-004	1.577078e-003
2.167000000000000e+000	2.167000e+000	1.872572e-004	1.594935e-003
2.168000000000000e+000	2.168000e+000	1.896927e-004	1.612993e-003
2.169000000000000e+000	2.169000e+000	1.921599e-004	1.631255e-003
2.170000000000000e+000	2.170000e+000	1.946592e-004	1.649721e-003
2.171000000000000e+000	2.171000e+000	1.971910e-004	1.668396e-003
2.172000000000000e+000	2.172000e+000	1.997556e-004	1.687281e-003
2.173000000000000e+000	2.173000e+000	2.023536e-004	1.706378e-003
2.174000000000000e+000	2.174000e+000	2.049854e-004	1.725690e-003
2.175000000000000e+000	2.175000e+000	2.076513e-004	1.745219e-003
2.176000000000000e+000	2.176000e+000	2.103519e-004	1.764968e-003
2.177000000000000e+000	2.177000e+000	2.130876e-004	1.784939e-003
2.178000000000000e+000	2.178000e+000	2.158588e-004	1.805135e-003
2.179000000000000e+000	2.179000e+000	2.186660e-004	1.825557e-003
2.180000000000000e+000	2.180000e+000	2.215097e-004	1.846209e-003
2.181000000000000e+000	2.181000e+000	2.243904e-004	1.867093e-003
2.182000000000000e+000	2.182000e+000	2.273085e-004	1.888212e-003
2.183000000000000e+000	2.183000e+000	2.302644e-004	1.909568e-003
2.184000000000000e+000	2.184000e+000	2.332588e-004	1.931164e-003
2.185000000000000e+000	2.185000e+000	2.362921e-004	1.953003e-003
2.186000000000000e+000	2.186000e+000	2.393648e-004	1.975087e-003
2.187000000000000e+000	2.187000e+000	2.424774e-004	1.997418e-003
2.188000000000000e+000	2.188000e+000	2.456304e-004	2.020001e-003
2.189000000000000e+000	2.189000e+000	2.488244e-004	2.042837e-003
2.190000000000000e+000	2.190000e+000	2.520599e-004	2.065929e-003
2.191000000000000e+000	2.191000e+000	2.553374e-004	2.089280e-003
2.192000000000000e+000	2.192000e+000	2.586575e-004	2.112893e-003
2.193000000000000e+000	2.193000e+000	2.620207e-004	2.136771e-003
2.194000000000000e+000	2.194000e+000	2.654276e-004	2.160917e-003
2.195000000000000e+000	2.195000e+000	2.688787e-004	2.185334e-003
2.196000000000000e+000	2.196000e+000	2.723746e-004	2.210024e-003
2.197000000000000e+000	2.197000e+000	2.759160e-004	2.234991e-003
2.198000000000000e+000	2.198000e+000	2.795033e-004	2.260238e-003
2.199000000000000e+000	2.199000e+000	2.831372e-004	2.285767e-003
2.200000000000000e+000	2.200000e+000	2.868183e-004	2.311583e-003
2.201000000000000e+000	2.201000e+000	2.905472e-004	2.337688e-003
2.202000000000000e+000	2.202000e+000	2.943246e-004	2.364085e-003
2.203000000000000e+000	2.203000e+000	2.981509e-004	2.390778e-003
2.204000000000000e+000	2.204000e+000	3.020270e-004	2.417770e-003
2.205000000000000e+000	2.205000e+000	3.059533e-004	2.445063e-003
2.206000000000000e+000	2.206000e+000	3.099307e-004	2.472662e-003
2.207000000000000e+000	2.207000e+000	3.139597e-004	2.500570e-003
2.208000000000000e+000	2.208000e+000	3.180410e-004	2.528790e-003
2.209000000000000e+000	2.209000e+000	3.221752e-004	2.557326e-003
2.210000000000000e+000	2.210000e+000	3.263632e-004	2.586181e-003
2.211000000000000e+000	2.211000e+000	3.306055e-004	2.615358e-003
2.212000000000000e+000	2.212000e+000	3.349029e-004	2.644862e-003
2.213000000000000e+000	2.213000e+000	3.392560e-004	2.674695e-003
2.214000000000000e+000	2.214000e+000	3.436657e-004	2.704861e-003
2.215000000000000e+000	2.215000e+000	3.481325e-004	2.735364e-003
2.216000000000000e+000	2.216000e+000	3.526574e-004	2.766208e-003
2.217000000000000e+000	2.217000e+000	3.572409e-004	2.797397e-003
2.218000000000000e+000	2.218000e+000	3.618840e-004	2.828933e-003
2.219000000000000e+000	2.219000e+000	3.665873e-004	2.860822e-003
2.220000000000000e+000	2.220000e+000	3.713516e-004	2.893066e-003
2.221000000000000e+000	2.221000e+000	3.761778e-004	2.925670e-003
2.222000000000000e+000	2.222000e+000	3.810666e-004	2.958637e-003
2.223000000000000e+000	2.223000e+000	3.860187e-004	2.991972e-003
2.224000000000000e+000	2.224000e+000	3.910352e-004	3.025678e-003
2.225000000000000e+000	2.225000e+000	3.961167e-004	3.059761e-003
2.226000000000000e+000	2.226000e+000	4.012642e-004	3.094223e-003
2.227000000000000e+000	2.227000e+000	4.064784e-004	3.129069e-003
2.228000000000000e+000	2.228000e+000	4.117603e-004	3.164302e-003
2.229000000000000e+000	2.229000e+000	4.171107e-004	3.199928e-003
2.230000000000000e+000	2.230000e+000	4.225304e-004	3.235951e-003
2.231000000000000e+000	2.231000e+000	4.280205e-004	3.272374e-003
2.232000000000000e+000	2.232000e+000	4.335818e-004	3.309203e-003
2.233000000000000e+000	2.233000e+000	4.392152e-004	3.346441e-003
2.234000000000000e+000	2.234000e+000	4.449216e-004	3.384094e-003
2.235000000000000e+000	2.235000e+000	4.507020e-004	3.422165e-003
2.236000000000000e+000	2.236000e+000	4.565574e-004	3.460658e-003
2.237000000000000e+000	2.237000e+000	4.624888e-004	3.499580e-003
2.238000000000000e+000	2.238000e+000	4.684970e-004	3.538934e-003
2.239000000000000e+000	2.239000e+000	4.745831e-004	3.578725e-003
2.240000000000000e+000	2.240000e+000	4.807481e-004	3.618957e-003
2.241000000000000e+000	2.241000e+000	4.869931e-004	3.659636e-003
2.242000000000000e+000	2.242000e+000	4.933189e-004	3.700767e-003
2.243000000000000e+000	2.243000e+000	4.997268e-004	3.742353e-003
2.244000000000000e+000	2.244000e+000	5.062178e-004	3.784401e-003
2.245000000000000e+000	2.245000e+000	5.127928e-004	3.826914e-003
2.246000000000000e+000	2.246000e+000	5.194531e-004	3.869899e-003
2.247000000000000e+000	2.247000e+000	5.261997e-004	3.913360e-003
2.248000000000000e+000	2.248000e+000	5.330337e-004	3.957302e-003
2.249000000000000e+000	2.249000e+000	5.399563e-004	4.001731e-003
2.250000000000000e+000	2.250000e+000	5.469685e-004	4.046652e-003
2.251000000000000e+000	2.251000e+000	5.540716e-004	4.092069e-003
2.252000000000000e+000	2.252000e+000	5.612668e-004	4.137988e-003
2.253000000000000e+000	2.253000e+000	5.685551e-004	4.184416e-003
2.254000000000000e+000	2.254000e+000	5.759379e-004	4.231357e-003
2.255000000000000e+000	2.255000e+000	5.834163e-004	4.278816e-003
2.256000000000000e+000	2.256000e+000	5.909915e-004	4.326799e-003
2.257000000000000e+000	2.257000e+000	5.986648e-004	4.375312e-003
2.258000000000000e+000	2.258000e+000	6.064376e-004	4.424362e-003
2.259000000000000e+000	2.259000e+000	6.143109e-004	4.473951e-003
2.260000000000000e+000	2.260000e+000	6.222862e-004	4.524088e-003
2.261000000000000e+000	2.261000e+000	6.303648e-004	4.574778e-003
2.262000000000000e+000	2.262000e+000	6.385480e-004	4.626027e-003
2.263000000000000e+000	2.263000e+000	6.468371e-004	4.677840e-003
2.264000000000000e+000	2.264000e+000	6.552335e-004	4.730224e-003
2.265000000000000e+000	2.265000e+000	6.637386e-004	4.783185e-003
2.266000000000000e+000	2.266000e+000	6.723538e-004	4.836729e-003
2.267000000000000e+000	2.267000e+000	6.810804e-004	4.890861e-003
2.268000000000000e+000	2.268000e+000	6.899201e-004	4.945590e-003
2.269000000000000e+000	2.269000e+000	6.988741e-004	5.000920e-003
2.270000000000000e+000	2.270000e+000	7.079439e-004	5.056858e-003
2.271000000000000e+000	2.271000e+000	7.171311e-004	5.113410e-003
2.272000000000000e+000	2.272000e+000	7.264372e-004	5.170583e-003
2.273000000000000e+000	2.273000e+000	7.358636e-004	5.228384e-003
2.274000000000000e+000	2.274000e+000	7.454120e-004	5.286819e-003
2.275000000000000e+000	2.275000e+000	7.550839e-004	5.345895e-003
2.276000000000000e+000	2.276000e+000	7.648808e-004	5.405619e-003
2.277000000000000e+000	2.277000e+000	7.748044e-004	5.465997e-003
2.278000000000000e+000	2.278000e+000	7.848564e-004	5.527037e-003
2.279000000000000e+000	2.279000e+000	7.950384e-004	5.588744e-003
2.280000000000000e+000	2.280000e+000	8.053519e-004	5.651128e-003
2.281000000000000e+000	2.281000e+000	8.157988e-004	5.714193e-003
2.282000000000000e+000	2.282000e+000	8.263808e-004	5.777949e-003
2.283000000000000e+000	2.283000e+000	8.370995e-004	5.842400e-003
2.284000000000000e+000	2.284000e+000	8.479567e-004	5.907557e-003
2.285000000000000e+000	2.285000e+000	8.589543e-004	5.973424e-003
2.286000000000000e+000	2.286000e+000	8.700939e-004	6.040011e-003
2.287000000000000e+000	2.287000e+000	8.813775e-004	6.107323e-003
2.288000000000000e+000	2.288000e+000	8.928069e-004	6.175370e-003
2.289000000000000e+000	2.289000e+000	9.043838e-004	6.244159e-003
2.290000000000000e+000	2.290000e+000	9.161104e-004	6.313697e-003
2.291000000000000e+000	2.291000e+000	9.279883e-004	6.383992e-003
2.292000000000000e+000	2.292000e+000	9.400197e-004	6.455053e-003
2.293000000000000e+000	2.293000e+000	9.522064e-004	6.526886e-003
2.294000000000000e+000	2.294000e+000	9.645504e-004	6.599500e-003
2.295000000000000e+000	2.295000e+000	9.770538e-004	6.672903e-003
2.296000000000000e+000	2.296000e+000	9.897186e-004	6.747104e-003
2.297000000000000e+000	2.297000e+000	1.002547e-003	6.822110e-003
2.298000000000000e+000	2.298000e+000	1.015541e-003	6.897930e-003
2.299000000000000e+000	2.299000e+000	1.028702e-003	6.974572e-003
2.300000000000000e+000	2.300000e+000	1.042034e-003	7.052044e-003
2.301000000000000e+000	2.301000e+000	1.055537e-003	7.130357e-003
