time	V(N025,Vo_led6)	V(Vcc_led,Vi_led6)	I(D12)
0.000000000000000e+00	4.196167e-05	0.000000e+00	-4.167732e-15
1.020500000000002e-06	4.196167e-05	0.000000e+00	8.949601e-15
2.044500000000005e-06	4.196167e-05	0.000000e+00	9.372149e-15
3.068500000000007e-06	4.196167e-05	0.000000e+00	4.842233e-15
4.092500000000010e-06	4.196167e-05	0.000000e+00	2.624521e-17
5.010000000000000e-06	4.196167e-05	0.000000e+00	7.327472e-15
5.010029196113218e-06	4.196167e-05	0.000000e+00	-3.924407e-06
5.010087588339652e-06	3.814697e-05	0.000000e+00	-1.518405e-05
5.010182098163936e-06	2.670288e-05	0.000000e+00	-4.323645e-05
5.010287067965390e-06	7.629395e-06	0.000000e+00	-8.822857e-05
5.010412755503510e-06	-1.525879e-05	0.000000e+00	-1.610313e-04
5.010599943813268e-06	-7.247925e-05	-3.814697e-06	-2.995470e-04
5.010879013454971e-06	-1.792908e-04	-7.629395e-06	-5.493803e-04
5.011252931890954e-06	-3.700256e-04	-1.907349e-05	-9.272036e-04
5.011831698927082e-06	-7.171631e-04	-4.959106e-05	-1.525318e-03
5.012488630729648e-06	-1.163483e-03	-9.155273e-05	-2.122879e-03
5.013488630729649e-06	-1.888275e-03	-1.640320e-04	-2.789475e-03
5.014488630729648e-06	-2.613068e-03	-2.403259e-04	-3.182990e-03
5.015200000000000e-06	-3.108978e-03	-2.899170e-04	-3.301882e-03
5.015608047808665e-06	6.721268e-01	7.549286e-03	1.943309e+00
5.015785805094367e-06	1.919878e+00	3.141403e-02	5.422365e+00
5.015947924989025e-06	3.525436e+00	8.154297e-02	9.678064e+00
5.016047052188142e-06	4.281837e+00	1.255188e-01	1.149569e+01
5.016200000000000e-06	5.201484e+00	2.036095e-01	1.353023e+01
5.016215294781186e-06	5.257216e+00	2.121201e-01	1.362741e+01
5.016245884343558e-06	5.364047e+00	2.292175e-01	1.381102e+01
5.016307063468301e-06	5.552407e+00	2.635841e-01	1.411289e+01
5.016429421717787e-06	5.862628e+00	3.324051e-01	1.454099e+01
5.016491333272121e-06	5.979946e+00	3.670235e-01	1.465028e+01
5.016534061227018e-06	6.033968e+00	3.906975e-01	1.465096e+01
5.016536532710290e-06	6.035809e+00	3.920555e-01	1.464733e+01
5.016541475676834e-06	6.037902e+00	3.947525e-01	1.463548e+01
5.016551361609922e-06	6.041130e+00	4.001236e-01	1.460912e+01
5.016571133476097e-06	6.045280e+00	4.107590e-01	1.455059e+01
5.016608576702134e-06	6.049551e+00	4.305077e-01	1.443282e+01
5.016678781771478e-06	6.054588e+00	4.663162e-01	1.421447e+01
5.016785851089577e-06	6.063026e+00	5.180130e-01	1.390853e+01
5.016962062991856e-06	6.080776e+00	5.969162e-01	1.346376e+01
5.017152757579087e-06	6.102698e+00	6.748009e-01	1.304094e+01
5.017351734394088e-06	6.128823e+00	7.486916e-01	1.265397e+01
5.017477931393865e-06	6.151358e+00	7.915230e-01	1.244834e+01
5.017634431050820e-06	6.187272e+00	8.407249e-01	1.223717e+01
5.017741819008076e-06	6.213598e+00	8.723297e-01	1.210753e+01
5.017887535279263e-06	6.248449e+00	9.117355e-01	1.194452e+01
5.018178967821638e-06	6.310210e+00	9.819717e-01	1.163103e+01
5.018583360009725e-06	6.369189e+00	1.065769e+00	1.117554e+01
5.018900811921984e-06	6.384983e+00	1.119766e+00	1.079850e+01
5.019242323593289e-06	6.381395e+00	1.166435e+00	1.045124e+01
5.019546672197685e-06	6.375496e+00	1.200699e+00	1.026531e+01
5.019873925489750e-06	6.369129e+00	1.231373e+00	1.018389e+01
5.020488267404584e-06	6.357583e+00	1.279816e+00	1.013083e+01
5.021121767870190e-06	6.347194e+00	1.320335e+00	1.009918e+01
5.022121767870190e-06	6.333646e+00	1.369251e+00	1.005952e+01
5.023121767870190e-06	6.322879e+00	1.405376e+00	1.002768e+01
5.024121767870190e-06	6.314591e+00	1.430885e+00	1.000322e+01
5.025121767870190e-06	6.308216e+00	1.448830e+00	9.984388e+00
5.026121767870190e-06	6.303298e+00	1.461391e+00	9.969870e+00
5.027121767870190e-06	6.299497e+00	1.470139e+00	9.958646e+00
5.028121767870190e-06	6.296550e+00	1.476192e+00	9.949943e+00
5.029121767870190e-06	6.294259e+00	1.480347e+00	9.943178e+00
5.030121767870190e-06	6.292473e+00	1.483173e+00	9.937902e+00
5.031121767870190e-06	6.291078e+00	1.485069e+00	9.933784e+00
5.032121767870190e-06	6.289986e+00	1.486320e+00	9.930558e+00
5.033121767870190e-06	6.289130e+00	1.487129e+00	9.928032e+00
5.034121767870190e-06	6.288459e+00	1.487637e+00	9.926052e+00
5.035121767870190e-06	6.287934e+00	1.487938e+00	9.924500e+00
5.036121767870190e-06	6.287523e+00	1.488110e+00	9.923285e+00
5.037121767870190e-06	6.287201e+00	1.488190e+00	9.922337e+00
5.038121767870190e-06	6.286951e+00	1.488220e+00	9.921598e+00
5.039121767870190e-06	6.286758e+00	1.488213e+00	9.921027e+00
5.040121767870190e-06	6.286609e+00	1.488190e+00	9.920588e+00
5.041121767870190e-06	6.286495e+00	1.488155e+00	9.920253e+00
5.042121767870190e-06	6.286410e+00	1.488121e+00	9.920001e+00
5.043121767870190e-06	6.286347e+00	1.488083e+00	9.919815e+00
5.044121767870190e-06	6.286302e+00	1.488052e+00	9.919682e+00
5.045121767870190e-06	6.286270e+00	1.488022e+00	9.919588e+00
5.046121767870190e-06	6.286250e+00	1.487999e+00	9.919528e+00
5.047121767870190e-06	6.286238e+00	1.487980e+00	9.919493e+00
5.048121767870190e-06	6.286233e+00	1.487965e+00	9.919477e+00
5.049121767870190e-06	6.286232e+00	1.487953e+00	9.919476e+00
5.050121767870190e-06	6.286235e+00	1.487946e+00	9.919485e+00
5.051121767870190e-06	6.286242e+00	1.487938e+00	9.919504e+00
5.052121767870190e-06	6.286250e+00	1.487938e+00	9.919529e+00
5.053121767870190e-06	6.286260e+00	1.487934e+00	9.919559e+00
5.054121767870190e-06	6.286271e+00	1.487934e+00	9.919591e+00
5.055121767870190e-06	6.286283e+00	1.487938e+00	9.919625e+00
5.056121767870190e-06	6.286294e+00	1.487938e+00	9.919660e+00
5.057121767870190e-06	6.286306e+00	1.487942e+00	9.919695e+00
5.058121767870190e-06	6.286318e+00	1.487946e+00	9.919729e+00
5.059121767870190e-06	6.286330e+00	1.487949e+00	9.919764e+00
5.060121767870190e-06	6.286341e+00	1.487953e+00	9.919796e+00
5.061121767870190e-06	6.286351e+00	1.487961e+00	9.919827e+00
5.062121767870190e-06	6.286362e+00	1.487965e+00	9.919858e+00
5.063121767870190e-06	6.286371e+00	1.487968e+00	9.919887e+00
5.064121767870190e-06	6.286381e+00	1.487972e+00	9.919914e+00
5.065121767870190e-06	6.286389e+00	1.487976e+00	9.919940e+00
5.066121767870190e-06	6.286397e+00	1.487980e+00	9.919964e+00
5.067121767870190e-06	6.286405e+00	1.487984e+00	9.919987e+00
5.068121767870191e-06	6.286412e+00	1.487988e+00	9.920008e+00
5.069121767870190e-06	6.286419e+00	1.487991e+00	9.920028e+00
5.070121767870190e-06	6.286425e+00	1.487995e+00	9.920046e+00
5.071121767870190e-06	6.286431e+00	1.487999e+00	9.920064e+00
5.072121767870190e-06	6.286437e+00	1.488003e+00	9.920080e+00
5.073121767870190e-06	6.286442e+00	1.488007e+00	9.920094e+00
5.074121767870190e-06	6.286446e+00	1.488007e+00	9.920109e+00
5.075121767870190e-06	6.286451e+00	1.488010e+00	9.920121e+00
5.076121767870190e-06	6.286454e+00	1.488014e+00	9.920133e+00
5.077121767870190e-06	6.286458e+00	1.488014e+00	9.920143e+00
5.078121767870190e-06	6.286462e+00	1.488018e+00	9.920154e+00
5.079121767870190e-06	6.286464e+00	1.488018e+00	9.920163e+00
5.080121767870190e-06	6.286467e+00	1.488022e+00	9.920172e+00
5.081121767870190e-06	6.286470e+00	1.488022e+00	9.920179e+00
5.082121767870190e-06	6.286473e+00	1.488022e+00	9.920187e+00
5.083121767870190e-06	6.286475e+00	1.488026e+00	9.920194e+00
5.084121767870190e-06	6.286477e+00	1.488026e+00	9.920200e+00
5.085121767870191e-06	6.286479e+00	1.488026e+00	9.920206e+00
5.086121767870190e-06	6.286481e+00	1.488029e+00	9.920211e+00
5.087121767870190e-06	6.286483e+00	1.488029e+00	9.920216e+00
5.088121767870190e-06	6.286484e+00	1.488029e+00	9.920220e+00
5.089121767870190e-06	6.286486e+00	1.488029e+00	9.920224e+00
5.090121767870190e-06	6.286487e+00	1.488033e+00	9.920228e+00
5.091121767870190e-06	6.286488e+00	1.488033e+00	9.920232e+00
5.092121767870190e-06	6.286489e+00	1.488033e+00	9.920235e+00
5.093121767870190e-06	6.286490e+00	1.488033e+00	9.920238e+00
5.094121767870190e-06	6.286491e+00	1.488033e+00	9.920240e+00
5.095121767870190e-06	6.286492e+00	1.488033e+00	9.920243e+00
5.096121767870190e-06	6.286492e+00	1.488037e+00	9.920245e+00
5.097121767870191e-06	6.286493e+00	1.488037e+00	9.920248e+00
5.098121767870190e-06	6.286494e+00	1.488037e+00	9.920249e+00
5.099121767870190e-06	6.286494e+00	1.488037e+00	9.920251e+00
5.100121767870190e-06	6.286495e+00	1.488037e+00	9.920253e+00
5.101121767870190e-06	6.286496e+00	1.488037e+00	9.920255e+00
5.102121767870191e-06	6.286496e+00	1.488037e+00	9.920256e+00
5.103121767870190e-06	6.286496e+00	1.488037e+00	9.920258e+00
5.104121767870190e-06	6.286497e+00	1.488037e+00	9.920258e+00
5.105121767870190e-06	6.286497e+00	1.488037e+00	9.920259e+00
5.106121767870190e-06	6.286497e+00	1.488037e+00	9.920259e+00
5.107121767870190e-06	6.286498e+00	1.488037e+00	9.920261e+00
5.108121767870190e-06	6.286498e+00	1.488037e+00	9.920261e+00
5.109121767870191e-06	6.286498e+00	1.488037e+00	9.920262e+00
5.110121767870190e-06	6.286499e+00	1.488041e+00	9.920263e+00
5.111121767870190e-06	6.286499e+00	1.488041e+00	9.920263e+00
5.112121767870190e-06	6.286499e+00	1.488041e+00	9.920265e+00
5.113121767870190e-06	6.286499e+00	1.488041e+00	9.920265e+00
5.114121767870191e-06	6.286500e+00	1.488041e+00	9.920266e+00
5.115121767870190e-06	6.286500e+00	1.488041e+00	9.920266e+00
5.116121767870190e-06	6.286500e+00	1.488041e+00	9.920267e+00
5.117121767870190e-06	6.286500e+00	1.488041e+00	9.920267e+00
5.118121767870190e-06	6.286500e+00	1.488041e+00	9.920267e+00
5.119121767870191e-06	6.286500e+00	1.488041e+00	9.920268e+00
5.120121767870190e-06	6.286500e+00	1.488041e+00	9.920268e+00
5.121121767870190e-06	6.286501e+00	1.488041e+00	9.920268e+00
5.122121767870190e-06	6.286501e+00	1.488041e+00	9.920268e+00
5.123121767870190e-06	6.286501e+00	1.488041e+00	9.920269e+00
5.124121767870190e-06	6.286501e+00	1.488041e+00	9.920269e+00
5.125121767870190e-06	6.286501e+00	1.488041e+00	9.920269e+00
5.126121767870191e-06	6.286501e+00	1.488041e+00	9.920269e+00
5.127121767870190e-06	6.286501e+00	1.488041e+00	9.920269e+00
5.128121767870190e-06	6.286501e+00	1.488041e+00	9.920269e+00
5.129121767870190e-06	6.286501e+00	1.488041e+00	9.920269e+00
5.130121767870190e-06	6.286501e+00	1.488041e+00	9.920270e+00
5.131121767870191e-06	6.286501e+00	1.488041e+00	9.920270e+00
5.132121767870190e-06	6.286501e+00	1.488041e+00	9.920271e+00
5.133121767870190e-06	6.286501e+00	1.488041e+00	9.920271e+00
5.134121767870190e-06	6.286501e+00	1.488041e+00	9.920271e+00
5.135121767870190e-06	6.286501e+00	1.488041e+00	9.920271e+00
5.136121767870191e-06	6.286501e+00	1.488041e+00	9.920271e+00
5.137121767870190e-06	6.286501e+00	1.488041e+00	9.920271e+00
5.138121767870191e-06	6.286501e+00	1.488041e+00	9.920271e+00
5.139121767870190e-06	6.286501e+00	1.488041e+00	9.920271e+00
5.140121767870190e-06	6.286501e+00	1.488041e+00	9.920271e+00
5.141121767870190e-06	6.286501e+00	1.488041e+00	9.920271e+00
5.142121767870190e-06	6.286502e+00	1.488041e+00	9.920271e+00
5.143121767870191e-06	6.286502e+00	1.488041e+00	9.920271e+00
5.144121767870190e-06	6.286501e+00	1.488041e+00	9.920271e+00
5.145121767870190e-06	6.286501e+00	1.488041e+00	9.920271e+00
5.146121767870190e-06	6.286501e+00	1.488041e+00	9.920271e+00
5.147121767870190e-06	6.286501e+00	1.488041e+00	9.920271e+00
5.148121767870191e-06	6.286501e+00	1.488041e+00	9.920271e+00
5.149121767870190e-06	6.286501e+00	1.488041e+00	9.920271e+00
5.150121767870190e-06	6.286501e+00	1.488041e+00	9.920271e+00
5.151121767870190e-06	6.286501e+00	1.488041e+00	9.920271e+00
5.152121767870190e-06	6.286501e+00	1.488041e+00	9.920271e+00
5.153121767870191e-06	6.286501e+00	1.488041e+00	9.920271e+00
5.154121767870190e-06	6.286501e+00	1.488041e+00	9.920271e+00
5.155121767870191e-06	6.286501e+00	1.488041e+00	9.920271e+00
5.156121767870190e-06	6.286501e+00	1.488041e+00	9.920271e+00
5.157121767870190e-06	6.286501e+00	1.488041e+00	9.920271e+00
5.158121767870190e-06	6.286501e+00	1.488041e+00	9.920271e+00
5.159121767870190e-06	6.286501e+00	1.488041e+00	9.920271e+00
5.160121767870191e-06	6.286502e+00	1.488041e+00	9.920271e+00
5.161121767870190e-06	6.286502e+00	1.488041e+00	9.920271e+00
5.162121767870190e-06	6.286502e+00	1.488041e+00	9.920271e+00
5.163121767870190e-06	6.286502e+00	1.488041e+00	9.920271e+00
5.164121767870190e-06	6.286502e+00	1.488041e+00	9.920271e+00
5.165121767870191e-06	6.286502e+00	1.488041e+00	9.920271e+00
5.166121767870190e-06	6.286502e+00	1.488041e+00	9.920271e+00
5.167121767870191e-06	6.286502e+00	1.488041e+00	9.920271e+00
5.168121767870190e-06	6.286502e+00	1.488041e+00	9.920271e+00
5.169121767870190e-06	6.286502e+00	1.488041e+00	9.920271e+00
5.170121767870191e-06	6.286501e+00	1.488041e+00	9.920271e+00
5.171121767870190e-06	6.286501e+00	1.488041e+00	9.920271e+00
5.172121767870191e-06	6.286502e+00	1.488041e+00	9.920271e+00
5.173121767870190e-06	6.286502e+00	1.488041e+00	9.920271e+00
5.174121767870190e-06	6.286502e+00	1.488041e+00	9.920271e+00
5.175121767870190e-06	6.286502e+00	1.488041e+00	9.920271e+00
5.176121767870190e-06	6.286502e+00	1.488041e+00	9.920271e+00
5.177121767870191e-06	6.286502e+00	1.488041e+00	9.920271e+00
5.178121767870190e-06	6.286501e+00	1.488041e+00	9.920271e+00
5.179121767870190e-06	6.286501e+00	1.488041e+00	9.920271e+00
5.180121767870190e-06	6.286501e+00	1.488041e+00	9.920271e+00
5.181121767870190e-06	6.286501e+00	1.488041e+00	9.920271e+00
5.182121767870191e-06	6.286502e+00	1.488041e+00	9.920271e+00
5.183121767870190e-06	6.286502e+00	1.488041e+00	9.920271e+00
5.184121767870191e-06	6.286502e+00	1.488041e+00	9.920271e+00
5.185121767870190e-06	6.286502e+00	1.488041e+00	9.920271e+00
5.186121767870190e-06	6.286502e+00	1.488041e+00	9.920271e+00
5.187121767870191e-06	6.286502e+00	1.488041e+00	9.920271e+00
5.188121767870190e-06	6.286501e+00	1.488041e+00	9.920271e+00
5.189121767870191e-06	6.286501e+00	1.488041e+00	9.920271e+00
5.190121767870190e-06	6.286501e+00	1.488041e+00	9.920271e+00
5.192121767870191e-06	6.286502e+00	1.488041e+00	9.920271e+00
5.194121767870191e-06	6.286502e+00	1.488041e+00	9.920271e+00
5.196121767870191e-06	6.286501e+00	1.488041e+00	9.920271e+00
5.198121767870190e-06	6.286501e+00	1.488041e+00	9.920271e+00
5.200121767870190e-06	6.286501e+00	1.488041e+00	9.920271e+00
5.202121767870190e-06	6.286502e+00	1.488041e+00	9.920271e+00
5.204121767870191e-06	6.286502e+00	1.488041e+00	9.920271e+00
5.206121767870191e-06	6.286501e+00	1.488041e+00	9.920271e+00
5.208121767870191e-06	6.286501e+00	1.488041e+00	9.920271e+00
5.211121767870191e-06	6.286502e+00	1.488041e+00	9.920271e+00
5.214121767870190e-06	6.286502e+00	1.488041e+00	9.920271e+00
5.215121767870190e-06	6.286501e+00	1.488041e+00	9.920271e+00
5.215200000000000e-06	6.286502e+00	1.488041e+00	9.920271e+00
5.215356464259619e-06	6.286501e+00	1.488041e+00	9.920271e+00
5.215669392778858e-06	6.286501e+00	1.488041e+00	9.920271e+00
5.216200000000000e-06	6.286499e+00	1.488041e+00	9.920264e+00
5.216253060722114e-06	6.286551e+00	1.488041e+00	9.920420e+00
5.216359182166343e-06	6.286664e+00	1.488041e+00	9.920759e+00
5.216571425054800e-06	6.286903e+00	1.488052e+00	9.921471e+00
5.216995910831714e-06	6.287363e+00	1.488091e+00	9.922833e+00
5.217844882385543e-06	6.288204e+00	1.488220e+00	9.925318e+00
5.218844882385542e-06	6.289079e+00	1.488426e+00	9.927900e+00
5.219844882385543e-06	6.289822e+00	1.488670e+00	9.930095e+00
5.220844882385542e-06	6.290429e+00	1.488930e+00	9.931888e+00
5.221844882385543e-06	6.290922e+00	1.489185e+00	9.933345e+00
5.222100000000000e-06	6.291021e+00	1.489246e+00	9.933638e+00
5.222610235228915e-06	6.291171e+00	1.489365e+00	9.934078e+00
5.223100000000000e-06	6.291286e+00	1.489475e+00	9.934418e+00
5.223148976477109e-06	6.291247e+00	1.489483e+00	9.934301e+00
5.223246929431326e-06	6.291157e+00	1.489502e+00	9.934031e+00
5.223442835339760e-06	6.290956e+00	1.489532e+00	9.933431e+00
5.223834647156627e-06	6.290540e+00	1.489567e+00	9.932198e+00
5.224618270790363e-06	6.289685e+00	1.489567e+00	9.929671e+00
5.225618270790364e-06	6.288531e+00	1.489464e+00	9.926262e+00
5.226618270790364e-06	6.287251e+00	1.489250e+00	9.922480e+00
5.227618270790363e-06	6.285751e+00	1.488930e+00	9.918036e+00
5.228618270790364e-06	6.283857e+00	1.488499e+00	9.912427e+00
5.229618270790363e-06	6.281204e+00	1.487915e+00	9.904572e+00
5.230618270790364e-06	6.276699e+00	1.487061e+00	9.891232e+00
5.231618270790363e-06	6.260886e+00	1.485245e+00	9.844304e+00
5.232618270790364e-06	6.223083e+00	1.481750e+00	9.732012e+00
5.232743270790363e-06	6.213272e+00	1.480930e+00	9.702861e+00
5.232993270790364e-06	6.184612e+00	1.478291e+00	9.617835e+00
5.233493270790363e-06	6.119799e+00	1.470150e+00	9.426030e+00
5.234493270790364e-06	5.941316e+00	1.445305e+00	8.897786e+00
5.235101288001484e-06	5.778028e+00	1.422287e+00	8.414981e+00
5.235542331248807e-06	5.664280e+00	1.399574e+00	8.080556e+00
5.235970417401340e-06	5.570035e+00	1.374393e+00	7.803813e+00
5.236259204028006e-06	5.469571e+00	1.355576e+00	7.506520e+00
5.236537612076636e-06	5.308491e+00	1.333557e+00	7.029852e+00
5.236932960065613e-06	4.942801e+00	1.292400e+00	5.949293e+00
5.237294711906195e-06	4.346792e+00	1.233681e+00	4.195269e+00
5.237847466469834e-06	2.752859e+00	1.080822e+00	-4.483502e-01
5.238394971313058e-06	4.827271e-01	8.613091e-01	-7.006403e+00
5.238406756755671e-06	4.211693e-01	8.551445e-01	-7.182984e+00
5.238430327640896e-06	2.824478e-01	8.409882e-01	-7.578562e+00
5.238477469411347e-06	-2.468109e-03	8.121147e-01	-8.388912e+00
5.238479091389586e-06	-1.246643e-02	8.111000e-01	-8.417325e+00
5.238482335346064e-06	-3.271866e-02	8.090439e-01	-8.474836e+00
5.238488823259020e-06	-7.322311e-02	8.049126e-01	-8.589746e+00
5.238494507895252e-06	-1.085243e-01	8.012581e-01	-8.689790e+00
5.238499999974751e-06	-1.376572e-01	7.976761e-01	-8.771277e+00
5.238507414425504e-06	-1.611290e-01	7.927856e-01	-8.833087e+00
5.238517585307530e-06	-1.752968e-01	7.860489e-01	-8.863394e+00
5.238529810304589e-06	-1.838570e-01	7.779503e-01	-8.874514e+00
5.238554260298707e-06	-1.914597e-01	7.618446e-01	-8.868104e+00
5.238603160286941e-06	-1.924210e-01	7.300873e-01	-8.812209e+00
5.238662358467995e-06	-1.880188e-01	6.927032e-01	-8.728183e+00
5.238780754830100e-06	-1.776009e-01	6.217575e-01	-8.556967e+00
5.239017547554312e-06	-1.569405e-01	4.933281e-01	-8.219923e+00
5.239491133002735e-06	-1.199226e-01	2.757683e-01	-7.570898e+00
5.240117212317551e-06	-7.928085e-02	4.541016e-02	-6.755073e+00
5.240610594974945e-06	-5.332565e-02	-9.674835e-02	-6.143552e+00
5.240869717687545e-06	-4.148865e-02	-1.578751e-01	-5.833270e+00
5.240969961106503e-06	-3.727722e-02	-1.791992e-01	-5.715697e+00
5.241038110139839e-06	-3.465652e-02	-1.929932e-01	-5.637002e+00
5.241106278697618e-06	-3.213882e-02	-2.062340e-01	-5.558876e+00
5.241163981250025e-06	-3.007507e-02	-2.170410e-01	-5.493163e+00
5.241219329937273e-06	-2.814484e-02	-2.270737e-01	-5.430488e+00
5.241263359905975e-06	-2.665710e-02	-2.348328e-01	-5.380888e+00
5.241298328893382e-06	-2.548981e-02	-2.408524e-01	-5.341619e+00
5.241320103086640e-06	-2.479172e-02	-2.445374e-01	-5.317293e+00
5.241331359100811e-06	-2.441406e-02	-2.464218e-01	-5.304686e+00
5.241337086286820e-06	-2.422714e-02	-2.473755e-01	-5.298287e+00
5.241341586789625e-06	-2.409363e-02	-2.481194e-01	-5.293291e+00
5.241346510239762e-06	-2.393341e-02	-2.489319e-01	-5.287798e+00
5.241351716077876e-06	-2.376556e-02	-2.497864e-01	-5.281999e+00
5.241362127754104e-06	-2.343750e-02	-2.514915e-01	-5.270417e+00
5.241382951106560e-06	-2.278137e-02	-2.548523e-01	-5.247294e+00
5.241424597811472e-06	-2.150726e-02	-2.614212e-01	-5.201233e+00
5.241507891221295e-06	-1.906204e-02	-2.739372e-01	-5.109834e+00
5.241674478040942e-06	-1.457977e-02	-2.966156e-01	-4.929890e+00
5.242007651680236e-06	-7.095337e-03	-3.335228e-01	-4.581120e+00
5.242673998958824e-06	4.077911e-03	-3.857918e-01	-3.915216e+00
5.243302113718254e-06	1.088715e-02	-4.141350e-01	-3.323629e+00
5.243833771610952e-06	1.375580e-02	-4.219208e-01	-2.857295e+00
5.244402147843404e-06	1.449203e-02	-4.173241e-01	-2.395098e+00
5.244964485738074e-06	1.347733e-02	-4.032059e-01	-1.975291e+00
5.245554836845392e-06	1.100540e-02	-3.807220e-01	-1.577618e+00
5.246122001756258e-06	7.678986e-03	-3.539734e-01	-1.242064e+00
5.246701378438198e-06	3.677368e-03	-3.234100e-01	-9.527605e-01
5.247267844124182e-06	-4.959106e-04	-2.921791e-01	-7.240033e-01
5.247846363913429e-06	-4.779816e-03	-2.604485e-01	-5.428768e-01
