time	V(N005,N014)	V(Vcc_led,Vi_led5)	I(D7)
0.000000000000000e+00	4.959106e-05	0.000000e+00	1.370659e-14
1.020500000000002e-06	4.959106e-05	0.000000e+00	-5.812080e-16
2.044500000000005e-06	4.959106e-05	0.000000e+00	-2.027342e-15
3.068500000000007e-06	4.959106e-05	0.000000e+00	1.306203e-14
4.092500000000010e-06	4.959106e-05	0.000000e+00	1.304550e-14
5.010000000000000e-06	4.959106e-05	0.000000e+00	4.329870e-15
5.010023327204865e-06	4.959106e-05	0.000000e+00	-3.577882e-06
5.010069981614595e-06	4.577637e-05	0.000000e+00	-1.380764e-05
5.010163290434056e-06	3.814697e-05	0.000000e+00	-4.509496e-05
5.010254600634486e-06	2.288818e-05	0.000000e+00	-8.958334e-05
5.010376200791442e-06	-7.629395e-06	0.000000e+00	-1.699933e-04
5.010536817788527e-06	-5.722046e-05	-3.814697e-06	-3.055738e-04
5.010789212833266e-06	-1.678467e-04	-7.629395e-06	-5.656821e-04
5.011172857512417e-06	-3.738403e-04	-2.288818e-05	-1.015841e-03
5.011741380652292e-06	-7.514954e-04	-5.722046e-05	-1.707546e-03
5.012294270176190e-06	-1.178741e-03	-1.029968e-04	-2.310893e-03
5.013294270176190e-06	-2.002716e-03	-2.059937e-04	-3.137867e-03
5.014294270176190e-06	-2.841949e-03	-3.204346e-04	-3.636559e-03
5.015294270176190e-06	-3.654480e-03	-4.348755e-04	-3.856608e-03
5.015599564328786e-06	6.140366e-01	6.286621e-03	1.869294e+00
5.015755991706289e-06	1.928341e+00	2.873230e-02	5.753130e+00
5.015891287647783e-06	3.566025e+00	7.656860e-02	1.037652e+01
5.016029165236723e-06	4.995075e+00	1.470184e-01	1.412428e+01
5.016036289554613e-06	5.060812e+00	1.512566e-01	1.428992e+01
5.016050538190394e-06	5.185036e+00	1.603699e-01	1.459848e+01
5.016079035461957e-06	5.405287e+00	1.791153e-01	1.512785e+01
5.016127334385124e-06	5.727768e+00	2.120895e-01	1.586960e+01
5.016200000000000e-06	6.160351e+00	2.631836e-01	1.682667e+01
5.016207266561487e-06	6.197575e+00	2.684860e-01	1.690598e+01
5.016221799684463e-06	6.269224e+00	2.791443e-01	1.705448e+01
5.016250865930413e-06	6.400393e+00	3.006897e-01	1.731439e+01
5.016308998422314e-06	6.620432e+00	3.443947e-01	1.771136e+01
5.016425263406115e-06	6.967062e+00	4.327927e-01	1.823816e+01
5.016503054891803e-06	7.134396e+00	4.921646e-01	1.840565e+01
5.016556060458407e-06	7.205173e+00	5.325317e-01	1.839345e+01
5.016559993349104e-06	7.207783e+00	5.355110e-01	1.838463e+01
5.016567859130497e-06	7.210033e+00	5.414314e-01	1.835814e+01
5.016583590693282e-06	7.213034e+00	5.532074e-01	1.830124e+01
5.016615053818855e-06	7.216057e+00	5.765076e-01	1.818117e+01
5.016672512701154e-06	7.218754e+00	6.182022e-01	1.796292e+01
5.016779998280544e-06	7.224182e+00	6.934776e-01	1.758443e+01
5.016961633836260e-06	7.237915e+00	8.146133e-01	1.701634e+01
5.017152183474513e-06	7.255745e+00	9.344292e-01	1.649106e+01
5.017337984082620e-06	7.276175e+00	1.044510e+00	1.603782e+01
5.017464888085003e-06	7.296597e+00	1.115578e+00	1.577552e+01
5.017645052911683e-06	7.336851e+00	1.211750e+00	1.546770e+01
5.017766567920585e-06	7.366951e+00	1.273987e+00	1.528537e+01
5.017908866573600e-06	7.401310e+00	1.343288e+00	1.509719e+01
5.018193463879631e-06	7.462183e+00	1.474251e+00	1.480362e+01
5.018532559865880e-06	7.510618e+00	1.620956e+00	1.458429e+01
5.018839331498635e-06	7.519329e+00	1.745296e+00	1.447342e+01
5.019185316838809e-06	7.501198e+00	1.877380e+00	1.438762e+01
5.019470901059769e-06	7.480808e+00	1.980309e+00	1.432317e+01
5.019810480935245e-06	7.456756e+00	2.094021e+00	1.424835e+01
5.020489640686196e-06	7.411564e+00	2.300266e+00	1.410766e+01
5.021390408828202e-06	7.358006e+00	2.540508e+00	1.394097e+01
5.022390408828202e-06	7.306890e+00	2.767334e+00	1.378193e+01
5.023390408828203e-06	7.263911e+00	2.957069e+00	1.364824e+01
5.024390408828202e-06	7.228069e+00	3.114906e+00	1.353678e+01
5.025390408828203e-06	7.198225e+00	3.246197e+00	1.344398e+01
5.026390408828202e-06	7.173397e+00	3.355404e+00	1.336680e+01
5.027390408828203e-06	7.152753e+00	3.446247e+00	1.330262e+01
5.028390408828202e-06	7.135594e+00	3.521812e+00	1.324929e+01
5.029390408828202e-06	7.121338e+00	3.584675e+00	1.320498e+01
5.030390408828203e-06	7.109497e+00	3.636971e+00	1.316818e+01
5.031390408828202e-06	7.099663e+00	3.680473e+00	1.313762e+01
5.032390408828203e-06	7.091498e+00	3.716671e+00	1.311226e+01
5.033390408828202e-06	7.084722e+00	3.746788e+00	1.309120e+01
5.034390408828202e-06	7.079101e+00	3.771851e+00	1.307373e+01
5.035390408828203e-06	7.074436e+00	3.792709e+00	1.305924e+01
5.036390408828202e-06	7.070570e+00	3.810070e+00	1.304723e+01
5.037390408828203e-06	7.067365e+00	3.824520e+00	1.303727e+01
5.038390408828202e-06	7.064707e+00	3.836552e+00	1.302902e+01
5.039390408828203e-06	7.062508e+00	3.846569e+00	1.302218e+01
5.040390408828203e-06	7.060687e+00	3.854912e+00	1.301653e+01
5.041390408828202e-06	7.059178e+00	3.861862e+00	1.301184e+01
5.042390408828203e-06	7.057934e+00	3.867653e+00	1.300797e+01
5.043390408828202e-06	7.056903e+00	3.872475e+00	1.300477e+01
5.044390408828203e-06	7.056053e+00	3.876499e+00	1.300213e+01
5.045390408828202e-06	7.055349e+00	3.879852e+00	1.299995e+01
5.046390408828202e-06	7.054770e+00	3.882648e+00	1.299815e+01
5.047390408828203e-06	7.054293e+00	3.884983e+00	1.299667e+01
5.048390408828202e-06	7.053900e+00	3.886932e+00	1.299545e+01
5.049390408828203e-06	7.053578e+00	3.888557e+00	1.299444e+01
5.050390408828202e-06	7.053314e+00	3.889919e+00	1.299362e+01
5.051390408828202e-06	7.053098e+00	3.891056e+00	1.299295e+01
5.052390408828203e-06	7.052918e+00	3.892006e+00	1.299240e+01
5.053390408828202e-06	7.052773e+00	3.892799e+00	1.299195e+01
5.054390408828203e-06	7.052656e+00	3.893467e+00	1.299158e+01
5.055390408828202e-06	7.052561e+00	3.894024e+00	1.299128e+01
5.056390408828203e-06	7.052484e+00	3.894493e+00	1.299104e+01
5.057390408828203e-06	7.052420e+00	3.894886e+00	1.299085e+01
5.058390408828202e-06	7.052370e+00	3.895218e+00	1.299069e+01
5.059390408828203e-06	7.052331e+00	3.895493e+00	1.299057e+01
5.060390408828202e-06	7.052298e+00	3.895729e+00	1.299047e+01
5.061390408828203e-06	7.052272e+00	3.895924e+00	1.299039e+01
5.062390408828203e-06	7.052254e+00	3.896091e+00	1.299033e+01
5.063390408828202e-06	7.052238e+00	3.896233e+00	1.299028e+01
5.064390408828203e-06	7.052227e+00	3.896351e+00	1.299024e+01
5.065390408828202e-06	7.052217e+00	3.896454e+00	1.299022e+01
5.066390408828203e-06	7.052212e+00	3.896538e+00	1.299020e+01
5.067390408828202e-06	7.052206e+00	3.896610e+00	1.299018e+01
5.068390408828203e-06	7.052204e+00	3.896675e+00	1.299017e+01
5.069390408828203e-06	7.052200e+00	3.896729e+00	1.299017e+01
5.070390408828202e-06	7.052200e+00	3.896774e+00	1.299016e+01
5.071390408828203e-06	7.052200e+00	3.896812e+00	1.299016e+01
5.072390408828202e-06	7.052201e+00	3.896843e+00	1.299017e+01
5.073390408828203e-06	7.052202e+00	3.896873e+00	1.299017e+01
5.074390408828203e-06	7.052203e+00	3.896896e+00	1.299017e+01
5.075390408828202e-06	7.052204e+00	3.896919e+00	1.299018e+01
5.076390408828203e-06	7.052206e+00	3.896938e+00	1.299018e+01
5.077390408828202e-06	7.052208e+00	3.896957e+00	1.299019e+01
5.078390408828203e-06	7.052208e+00	3.896969e+00	1.299019e+01
5.079390408828203e-06	7.052211e+00	3.896980e+00	1.299020e+01
5.080390408828202e-06	7.052212e+00	3.896992e+00	1.299020e+01
5.081390408828203e-06	7.052215e+00	3.897003e+00	1.299021e+01
5.082390408828202e-06	7.052217e+00	3.897011e+00	1.299021e+01
5.083390408828203e-06	7.052217e+00	3.897018e+00	1.299022e+01
5.084390408828202e-06	7.052218e+00	3.897026e+00	1.299022e+01
5.085390408828203e-06	7.052221e+00	3.897030e+00	1.299022e+01
5.086390408828203e-06	7.052220e+00	3.897038e+00	1.299023e+01
5.087390408828202e-06	7.052223e+00	3.897041e+00	1.299023e+01
5.088390408828203e-06	7.052224e+00	3.897045e+00	1.299024e+01
5.089390408828202e-06	7.052223e+00	3.897049e+00	1.299024e+01
5.090390408828203e-06	7.052226e+00	3.897053e+00	1.299024e+01
5.091390408828203e-06	7.052227e+00	3.897057e+00	1.299024e+01
5.092390408828202e-06	7.052228e+00	3.897057e+00	1.299025e+01
5.093390408828203e-06	7.052229e+00	3.897060e+00	1.299025e+01
5.094390408828202e-06	7.052230e+00	3.897060e+00	1.299025e+01
5.095390408828203e-06	7.052230e+00	3.897064e+00	1.299026e+01
5.096390408828203e-06	7.052231e+00	3.897064e+00	1.299026e+01
5.097390408828203e-06	7.052232e+00	3.897068e+00	1.299026e+01
5.098390408828203e-06	7.052231e+00	3.897068e+00	1.299026e+01
5.099390408828202e-06	7.052232e+00	3.897072e+00	1.299026e+01
5.100390408828203e-06	7.052233e+00	3.897072e+00	1.299026e+01
5.101390408828202e-06	7.052234e+00	3.897072e+00	1.299026e+01
5.102390408828203e-06	7.052234e+00	3.897072e+00	1.299027e+01
5.103390408828203e-06	7.052234e+00	3.897076e+00	1.299027e+01
5.104390408828202e-06	7.052234e+00	3.897076e+00	1.299027e+01
5.105390408828203e-06	7.052236e+00	3.897076e+00	1.299027e+01
5.106390408828202e-06	7.052236e+00	3.897076e+00	1.299027e+01
5.107390408828203e-06	7.052235e+00	3.897076e+00	1.299027e+01
5.108390408828203e-06	7.052236e+00	3.897079e+00	1.299027e+01
5.109390408828202e-06	7.052236e+00	3.897079e+00	1.299027e+01
5.110390408828203e-06	7.052237e+00	3.897079e+00	1.299027e+01
5.111390408828202e-06	7.052237e+00	3.897079e+00	1.299027e+01
5.112390408828203e-06	7.052237e+00	3.897079e+00	1.299028e+01
5.113390408828203e-06	7.052237e+00	3.897079e+00	1.299028e+01
5.114390408828203e-06	7.052237e+00	3.897079e+00	1.299028e+01
5.115390408828203e-06	7.052238e+00	3.897079e+00	1.299028e+01
5.116390408828202e-06	7.052238e+00	3.897079e+00	1.299028e+01
5.117390408828203e-06	7.052237e+00	3.897083e+00	1.299028e+01
5.118390408828202e-06	7.052238e+00	3.897083e+00	1.299028e+01
5.119390408828203e-06	7.052238e+00	3.897083e+00	1.299028e+01
5.120390408828203e-06	7.052238e+00	3.897083e+00	1.299028e+01
5.121390408828202e-06	7.052237e+00	3.897083e+00	1.299028e+01
5.122390408828203e-06	7.052238e+00	3.897083e+00	1.299028e+01
5.123390408828202e-06	7.052238e+00	3.897083e+00	1.299028e+01
5.124390408828203e-06	7.052238e+00	3.897083e+00	1.299028e+01
5.125390408828203e-06	7.052237e+00	3.897083e+00	1.299028e+01
5.126390408828203e-06	7.052237e+00	3.897083e+00	1.299028e+01
5.127390408828203e-06	7.052237e+00	3.897083e+00	1.299028e+01
5.128390408828202e-06	7.052238e+00	3.897083e+00	1.299028e+01
5.129390408828203e-06	7.052238e+00	3.897083e+00	1.299028e+01
5.130390408828203e-06	7.052238e+00	3.897083e+00	1.299028e+01
5.131390408828203e-06	7.052238e+00	3.897083e+00	1.299028e+01
5.132390408828203e-06	7.052238e+00	3.897083e+00	1.299028e+01
5.133390408828202e-06	7.052238e+00	3.897083e+00	1.299028e+01
5.134390408828203e-06	7.052238e+00	3.897083e+00	1.299028e+01
5.135390408828202e-06	7.052238e+00	3.897083e+00	1.299028e+01
5.136390408828203e-06	7.052238e+00	3.897083e+00	1.299028e+01
5.137390408828203e-06	7.052238e+00	3.897083e+00	1.299028e+01
5.138390408828202e-06	7.052238e+00	3.897083e+00	1.299028e+01
5.139390408828203e-06	7.052238e+00	3.897083e+00	1.299028e+01
5.140390408828202e-06	7.052238e+00	3.897083e+00	1.299028e+01
5.141390408828203e-06	7.052238e+00	3.897083e+00	1.299028e+01
5.142390408828203e-06	7.052238e+00	3.897083e+00	1.299028e+01
5.143390408828203e-06	7.052238e+00	3.897083e+00	1.299028e+01
5.144390408828203e-06	7.052238e+00	3.897083e+00	1.299028e+01
5.145390408828202e-06	7.052238e+00	3.897083e+00	1.299028e+01
5.146390408828203e-06	7.052239e+00	3.897083e+00	1.299028e+01
5.147390408828203e-06	7.052239e+00	3.897083e+00	1.299028e+01
5.148390408828203e-06	7.052239e+00	3.897083e+00	1.299028e+01
5.149390408828203e-06	7.052239e+00	3.897083e+00	1.299028e+01
5.150390408828202e-06	7.052239e+00	3.897083e+00	1.299028e+01
5.151390408828203e-06	7.052239e+00	3.897083e+00	1.299028e+01
5.152390408828202e-06	7.052239e+00	3.897083e+00	1.299028e+01
5.153390408828203e-06	7.052239e+00	3.897083e+00	1.299028e+01
5.154390408828203e-06	7.052239e+00	3.897083e+00	1.299028e+01
5.155390408828203e-06	7.052239e+00	3.897083e+00	1.299028e+01
5.156390408828203e-06	7.052239e+00	3.897083e+00	1.299028e+01
5.157390408828202e-06	7.052239e+00	3.897083e+00	1.299028e+01
5.158390408828203e-06	7.052239e+00	3.897083e+00	1.299028e+01
5.159390408828203e-06	7.052239e+00	3.897083e+00	1.299028e+01
5.160390408828203e-06	7.052239e+00	3.897083e+00	1.299028e+01
5.161390408828203e-06	7.052240e+00	3.897083e+00	1.299028e+01
5.162390408828202e-06	7.052240e+00	3.897083e+00	1.299028e+01
5.163390408828203e-06	7.052240e+00	3.897083e+00	1.299028e+01
5.164390408828203e-06	7.052240e+00	3.897083e+00	1.299028e+01
5.165390408828203e-06	7.052240e+00	3.897083e+00	1.299028e+01
5.166390408828203e-06	7.052240e+00	3.897083e+00	1.299028e+01
5.167390408828202e-06	7.052240e+00	3.897083e+00	1.299028e+01
5.168390408828203e-06	7.052240e+00	3.897083e+00	1.299028e+01
5.169390408828202e-06	7.052240e+00	3.897083e+00	1.299028e+01
5.170390408828203e-06	7.052238e+00	3.897083e+00	1.299028e+01
5.171390408828203e-06	7.052238e+00	3.897083e+00	1.299028e+01
5.172390408828203e-06	7.052238e+00	3.897083e+00	1.299028e+01
5.173390408828203e-06	7.052238e+00	3.897083e+00	1.299028e+01
5.174390408828202e-06	7.052238e+00	3.897083e+00	1.299028e+01
5.175390408828203e-06	7.052238e+00	3.897083e+00	1.299028e+01
5.176390408828203e-06	7.052238e+00	3.897083e+00	1.299028e+01
5.177390408828203e-06	7.052238e+00	3.897083e+00	1.299028e+01
5.178390408828203e-06	7.052238e+00	3.897083e+00	1.299028e+01
5.179390408828202e-06	7.052238e+00	3.897083e+00	1.299028e+01
5.180390408828203e-06	7.052238e+00	3.897083e+00	1.299028e+01
5.181390408828203e-06	7.052238e+00	3.897083e+00	1.299028e+01
5.182390408828203e-06	7.052238e+00	3.897083e+00	1.299028e+01
5.183390408828203e-06	7.052238e+00	3.897083e+00	1.299028e+01
5.184390408828203e-06	7.052238e+00	3.897083e+00	1.299028e+01
5.185390408828203e-06	7.052238e+00	3.897083e+00	1.299028e+01
5.186390408828203e-06	7.052238e+00	3.897083e+00	1.299028e+01
5.187390408828203e-06	7.052238e+00	3.897083e+00	1.299028e+01
5.188390408828203e-06	7.052238e+00	3.897083e+00	1.299028e+01
5.189390408828203e-06	7.052238e+00	3.897083e+00	1.299028e+01
5.190390408828203e-06	7.052238e+00	3.897083e+00	1.299028e+01
5.192390408828203e-06	7.052238e+00	3.897083e+00	1.299028e+01
5.194390408828203e-06	7.052238e+00	3.897083e+00	1.299028e+01
5.196390408828203e-06	7.052238e+00	3.897083e+00	1.299028e+01
5.198390408828203e-06	7.052238e+00	3.897083e+00	1.299028e+01
5.200390408828203e-06	7.052238e+00	3.897083e+00	1.299028e+01
5.202390408828203e-06	7.052238e+00	3.897083e+00	1.299028e+01
5.204390408828203e-06	7.052238e+00	3.897083e+00	1.299028e+01
5.206390408828203e-06	7.052238e+00	3.897083e+00	1.299028e+01
5.208390408828202e-06	7.052238e+00	3.897083e+00	1.299028e+01
5.211390408828203e-06	7.052238e+00	3.897083e+00	1.299028e+01
5.213390408828203e-06	7.052240e+00	3.897083e+00	1.299028e+01
5.214390408828203e-06	7.052240e+00	3.897083e+00	1.299028e+01
5.215200000000000e-06	7.052240e+00	3.897083e+00	1.299028e+01
5.216200000000000e-06	7.052242e+00	3.897083e+00	1.299029e+01
5.216300000000000e-06	7.052363e+00	3.897087e+00	1.299067e+01
5.216500000000000e-06	7.052622e+00	3.897099e+00	1.299149e+01
5.216900000000000e-06	7.053144e+00	3.897141e+00	1.299311e+01
5.217700000000000e-06	7.054098e+00	3.897301e+00	1.299607e+01
5.218700000000000e-06	7.055143e+00	3.897591e+00	1.299932e+01
5.219700000000000e-06	7.056023e+00	3.897957e+00	1.300205e+01
5.220700000000000e-06	7.056727e+00	3.898376e+00	1.300424e+01
5.221700000000000e-06	7.057281e+00	3.898823e+00	1.300596e+01
5.222100000000000e-06	7.057454e+00	3.899002e+00	1.300650e+01
5.222300000000000e-06	7.057520e+00	3.899090e+00	1.300671e+01
5.222700000000000e-06	7.057622e+00	3.899261e+00	1.300702e+01
5.223100000000000e-06	7.057699e+00	3.899433e+00	1.300726e+01
5.223140000000000e-06	7.057659e+00	3.899452e+00	1.300713e+01
5.223220000000000e-06	7.057568e+00	3.899483e+00	1.300684e+01
5.223380000000000e-06	7.057361e+00	3.899540e+00	1.300620e+01
5.223700000000000e-06	7.056932e+00	3.899632e+00	1.300486e+01
5.224340000000000e-06	7.056058e+00	3.899738e+00	1.300214e+01
5.225340000000000e-06	7.054630e+00	3.899754e+00	1.299771e+01
5.226340000000000e-06	7.053078e+00	3.899590e+00	1.299288e+01
5.227340000000000e-06	7.051289e+00	3.899231e+00	1.298731e+01
5.228340000000000e-06	7.049071e+00	3.898655e+00	1.298041e+01
5.229339999999999e-06	7.046029e+00	3.897816e+00	1.297094e+01
5.230340000000000e-06	7.041051e+00	3.896568e+00	1.295545e+01
5.231340000000000e-06	7.025734e+00	3.894157e+00	1.290768e+01
5.232340000000000e-06	6.969209e+00	3.887344e+00	1.273141e+01
5.233340000000000e-06	6.847884e+00	3.869774e+00	1.235382e+01
5.234339999999999e-06	6.630695e+00	3.835686e+00	1.167792e+01
5.234913455167696e-06	6.437452e+00	3.803791e+00	1.107718e+01
5.235264984652717e-06	6.333614e+00	3.777203e+00	1.075647e+01
5.235609145392417e-06	6.255617e+00	3.747509e+00	1.051593e+01
5.235895049797721e-06	6.159399e+00	3.720566e+00	1.021669e+01
5.236175623572347e-06	6.012444e+00	3.690071e+00	9.759657e+00
5.236525294510583e-06	5.721254e+00	3.643242e+00	8.854681e+00
5.236875710097111e-06	5.194382e+00	3.574898e+00	7.221620e+00
5.237446254075857e-06	3.620295e+00	3.388687e+00	2.384024e+00
5.238047415931654e-06	1.141171e+00	3.101040e+00	-5.180584e+00
5.238076800755478e-06	9.799957e-01	3.082153e+00	-5.668504e+00
5.238135570403128e-06	6.045227e-01	3.037754e+00	-6.799025e+00
5.238190612477782e-06	2.383080e-01	2.994160e+00	-7.898249e+00
5.238242241823879e-06	-1.156273e-01	2.951023e+00	-8.956309e+00
5.238272016784096e-06	-3.207436e-01	2.924644e+00	-9.566502e+00
5.238294621349057e-06	-4.725876e-01	2.903351e+00	-1.001580e+01
5.238315881770429e-06	-6.043205e-01	2.882469e+00	-1.040240e+01
5.238318401946631e-06	-6.133308e-01	2.879936e+00	-1.042716e+01
5.238323442299034e-06	-6.190414e-01	2.874817e+00	-1.043746e+01
5.238333523003842e-06	-6.268044e-01	2.864567e+00	-1.044652e+01
5.238353684413457e-06	-6.339684e-01	2.844112e+00	-1.043826e+01
5.238394007232687e-06	-6.334801e-01	2.803551e+00	-1.037494e+01
5.238635944148067e-06	-5.934677e-01	2.572018e+00	-9.885015e+00
5.238958526701907e-06	-5.391617e-01	2.293350e+00	-9.242854e+00
5.239603691809588e-06	-4.411888e-01	1.805058e+00	-8.019084e+00
5.240242320920846e-06	-3.581009e-01	1.396751e+00	-6.881819e+00
5.240779635651236e-06	-3.003654e-01	1.115608e+00	-5.992273e+00
5.241350565260311e-06	-2.500153e-01	8.720360e-01	-5.112985e+00
5.241909003083450e-06	-2.098541e-01	6.790276e-01	-4.314110e+00
5.242499795760017e-06	-1.758232e-01	5.167274e-01	-3.534253e+00
5.243066164927788e-06	-1.501503e-01	3.955078e-01	-2.851091e+00
5.243647006583358e-06	-1.298790e-01	3.011742e-01	-2.220556e+00
5.244212740115390e-06	-1.149864e-01	2.333565e-01	-1.683241e+00
5.244791902844056e-06	-1.037102e-01	1.838989e-01	-1.225342e+00
5.245360993500669e-06	-9.560776e-02	1.504402e-01	-8.726009e-01
5.245938689535817e-06	-8.963394e-02	1.279221e-01	-6.057937e-01
5.246508842513203e-06	-8.533096e-02	1.137352e-01	-4.160655e-01
5.247085113761514e-06	-8.213806e-02	1.050415e-01	-2.812403e-01
5.247656248314285e-06	-7.978821e-02	1.002388e-01	-1.893877e-01
5.248290802539702e-06	-7.784653e-02	9.781265e-02	-1.220918e-01
5.249092670510518e-06	-7.602310e-02	9.716034e-02	-6.947305e-02
5.250063641243317e-06	-7.436371e-02	9.803009e-02	-3.319683e-02
5.251063641243317e-06	-7.299805e-02	9.951782e-02	-1.370031e-02
5.252063641243317e-06	-7.174301e-02	1.005554e-01	-3.946475e-03
5.253063641243316e-06	-7.000351e-02	9.943008e-02	2.467478e-03
5.253671999431135e-06	-6.814957e-02	9.605408e-02	7.106666e-03
5.253810591358558e-06	-6.760788e-02	9.450531e-02	8.226039e-03
5.253879879950463e-06	-6.735611e-02	9.354401e-02	8.653605e-03
5.253941032021913e-06	-6.713104e-02	9.270477e-02	9.024740e-03
5.253974459592841e-06	-6.700897e-02	9.225082e-02	9.201713e-03
5.254000316249093e-06	-6.691742e-02	9.189987e-02	9.339903e-03
5.254021253908637e-06	-6.683731e-02	9.161758e-02	9.457533e-03
5.254043168836600e-06	-6.676102e-02	9.132385e-02	9.564778e-03
5.254065814854645e-06	-6.668091e-02	9.101868e-02	9.682127e-03
5.254094974471104e-06	-6.657791e-02	9.063339e-02	9.823175e-03
