time	V(Vcc_led,Vi_led5)	V(Vi_led5,N001)	I(D6)
0.000000000000000e+00	0.000000e+00	4.959106e-05	7.768569e-15
1.020500000000002e-06	0.000000e+00	4.959106e-05	1.322756e-15
2.044500000000005e-06	0.000000e+00	4.959106e-05	-6.369702e-15
3.068500000000007e-06	0.000000e+00	4.959106e-05	-9.815691e-16
4.092500000000010e-06	0.000000e+00	4.959106e-05	7.164930e-15
5.010000000000000e-06	0.000000e+00	4.959106e-05	-5.551115e-16
5.010024504569272e-06	0.000000e+00	4.959106e-05	-3.657422e-06
5.010073513707813e-06	0.000000e+00	4.577637e-05	-1.422841e-05
5.010171531984899e-06	0.000000e+00	3.433228e-05	-4.662598e-05
5.010263524985434e-06	0.000000e+00	1.907349e-05	-9.082692e-05
5.010389144798269e-06	0.000000e+00	-1.525879e-05	-1.727503e-04
5.010555269885641e-06	-3.814697e-06	-6.484985e-05	-3.110640e-04
5.010819980262910e-06	-7.629395e-06	-1.831055e-04	-5.799962e-04
5.011207674011450e-06	-2.288818e-05	-4.005432e-04	-1.027644e-03
5.011795914848033e-06	-5.722046e-05	-8.010864e-04	-1.728622e-03
5.012403931749843e-06	-1.029968e-04	-1.277924e-03	-2.373734e-03
5.013403931749843e-06	-1.983643e-04	-2.113342e-03	-3.168664e-03
5.014403931749843e-06	-2.975464e-04	-2.952576e-03	-3.654467e-03
5.015200000000000e-06	-3.738403e-04	-3.601074e-03	-3.831241e-03
5.015624520341212e-06	1.104736e-02	9.298019e-01	2.674583e+00
5.015812493237123e-06	4.387665e-02	2.595963e+00	7.316674e+00
5.015962249946172e-06	1.028900e-01	4.367168e+00	1.200517e+01
5.016051994576439e-06	1.526413e-01	5.153896e+00	1.389553e+01
5.016200000000000e-06	2.457924e-01	6.211433e+00	1.628702e+01
5.016214800542356e-06	2.559891e-01	6.273743e+00	1.639835e+01
5.016244401627069e-06	2.764931e-01	6.394409e+00	1.661296e+01
5.016303603796492e-06	3.178825e-01	6.611198e+00	1.698005e+01
5.016422008135341e-06	4.012604e-01	6.972061e+00	1.752213e+01
5.016493627214597e-06	4.517288e-01	7.136467e+00	1.770380e+01
5.016540039134509e-06	4.841805e-01	7.199223e+00	1.769918e+01
5.016584864155203e-06	5.151253e-01	7.224236e+00	1.759382e+01
5.016609072594181e-06	5.315857e-01	7.227921e+00	1.751022e+01
5.016639038395842e-06	5.515900e-01	7.229164e+00	1.740060e+01
5.016698969999163e-06	5.907288e-01	7.231739e+00	1.718992e+01
5.016771311088894e-06	6.363449e-01	7.236305e+00	1.695444e+01
5.016915993268356e-06	7.228851e-01	7.249161e+00	1.653241e+01
5.017114074788895e-06	8.335648e-01	7.270266e+00	1.602021e+01
5.017325762436935e-06	9.432716e-01	7.296600e+00	1.553831e+01
5.017467243285395e-06	1.011105e+00	7.321598e+00	1.526920e+01
5.017660810287349e-06	1.097809e+00	7.368071e+00	1.496946e+01
5.017790235371475e-06	1.152512e+00	7.402304e+00	1.479416e+01
5.017939372608579e-06	1.211235e+00	7.440628e+00	1.460999e+01
5.018237647082786e-06	1.319321e+00	7.507771e+00	1.428326e+01
5.018586132785226e-06	1.433868e+00	7.558748e+00	1.397706e+01
5.018903331168756e-06	1.527447e+00	7.568880e+00	1.379254e+01
5.019241513257023e-06	1.617779e+00	7.555857e+00	1.369069e+01
5.019559026026329e-06	1.695454e+00	7.539869e+00	1.363755e+01
5.019895930837606e-06	1.769653e+00	7.523481e+00	1.358926e+01
5.020569740460160e-06	1.900051e+00	7.493149e+00	1.349903e+01
5.021295371259998e-06	2.018456e+00	7.464815e+00	1.341480e+01
5.022295371259999e-06	2.149769e+00	7.432512e+00	1.331880e+01
5.023295371259999e-06	2.253082e+00	7.406538e+00	1.324160e+01
5.024295371259998e-06	2.332504e+00	7.386124e+00	1.318095e+01
5.025295371259999e-06	2.393505e+00	7.370121e+00	1.313339e+01
5.026295371259998e-06	2.440331e+00	7.357574e+00	1.309612e+01
5.027295371259999e-06	2.476242e+00	7.347752e+00	1.306694e+01
5.028295371259998e-06	2.503761e+00	7.340063e+00	1.304409e+01
5.029295371259999e-06	2.524837e+00	7.334042e+00	1.302621e+01
5.030295371259999e-06	2.540962e+00	7.329329e+00	1.301222e+01
5.031295371259998e-06	2.553284e+00	7.325645e+00	1.300127e+01
5.032295371259999e-06	2.562695e+00	7.322763e+00	1.299271e+01
5.033295371259998e-06	2.569874e+00	7.320513e+00	1.298603e+01
5.034295371259999e-06	2.575344e+00	7.318756e+00	1.298081e+01
5.035295371259999e-06	2.579510e+00	7.317387e+00	1.297674e+01
5.036295371259998e-06	2.582676e+00	7.316322e+00	1.297357e+01
5.037295371259999e-06	2.585083e+00	7.315493e+00	1.297111e+01
5.038295371259998e-06	2.586906e+00	7.314854e+00	1.296921e+01
5.039295371259999e-06	2.588295e+00	7.314354e+00	1.296774e+01
5.040295371259999e-06	2.589340e+00	7.313976e+00	1.296660e+01
5.041295371259998e-06	2.590137e+00	7.313683e+00	1.296574e+01
5.042295371259999e-06	2.590736e+00	7.313463e+00	1.296508e+01
5.043295371259998e-06	2.591194e+00	7.313293e+00	1.296458e+01
5.044295371259999e-06	2.591537e+00	7.313169e+00	1.296422e+01
5.045295371259999e-06	2.591797e+00	7.313080e+00	1.296394e+01
5.046295371259999e-06	2.591995e+00	7.313013e+00	1.296375e+01
5.047295371259999e-06	2.592148e+00	7.312967e+00	1.296362e+01
5.048295371259998e-06	2.592262e+00	7.312939e+00	1.296353e+01
5.049295371259999e-06	2.592354e+00	7.312918e+00	1.296347e+01
5.050295371259998e-06	2.592422e+00	7.312908e+00	1.296344e+01
5.051295371259999e-06	2.592476e+00	7.312906e+00	1.296343e+01
5.052295371259999e-06	2.592522e+00	7.312904e+00	1.296344e+01
5.053295371259998e-06	2.592552e+00	7.312916e+00	1.296346e+01
5.054295371259999e-06	2.592583e+00	7.312922e+00	1.296348e+01
5.055295371259998e-06	2.592606e+00	7.312931e+00	1.296351e+01
5.056295371259999e-06	2.592628e+00	7.312941e+00	1.296354e+01
5.057295371259999e-06	2.592644e+00	7.312954e+00	1.296358e+01
5.058295371259999e-06	2.592659e+00	7.312967e+00	1.296361e+01
5.059295371259999e-06	2.592674e+00	7.312977e+00	1.296365e+01
5.060295371259998e-06	2.592686e+00	7.312990e+00	1.296368e+01
5.061295371259999e-06	2.592697e+00	7.313002e+00	1.296372e+01
5.062295371259999e-06	2.592709e+00	7.313011e+00	1.296375e+01
5.063295371259999e-06	2.592716e+00	7.313025e+00	1.296378e+01
5.064295371259999e-06	2.592724e+00	7.313036e+00	1.296381e+01
5.065295371259998e-06	2.592735e+00	7.313042e+00	1.296384e+01
5.066295371259999e-06	2.592743e+00	7.313051e+00	1.296387e+01
5.067295371259998e-06	2.592747e+00	7.313065e+00	1.296390e+01
5.068295371259999e-06	2.592754e+00	7.313070e+00	1.296392e+01
5.069295371259999e-06	2.592762e+00	7.313076e+00	1.296394e+01
5.070295371259998e-06	2.592766e+00	7.313086e+00	1.296396e+01
5.071295371259999e-06	2.592773e+00	7.313091e+00	1.296398e+01
5.072295371259998e-06	2.592777e+00	7.313099e+00	1.296400e+01
5.073295371259999e-06	2.592781e+00	7.313105e+00	1.296402e+01
5.074295371259999e-06	2.592789e+00	7.313107e+00	1.296403e+01
5.075295371259999e-06	2.592793e+00	7.313112e+00	1.296405e+01
5.076295371259999e-06	2.592796e+00	7.313116e+00	1.296406e+01
5.077295371259998e-06	2.592800e+00	7.313122e+00	1.296407e+01
5.078295371259999e-06	2.592804e+00	7.313124e+00	1.296408e+01
5.079295371259999e-06	2.592804e+00	7.313129e+00	1.296410e+01
5.080295371259999e-06	2.592808e+00	7.313133e+00	1.296410e+01
5.081295371259999e-06	2.592812e+00	7.313133e+00	1.296411e+01
5.082295371259998e-06	2.592815e+00	7.313137e+00	1.296412e+01
5.083295371259999e-06	2.592815e+00	7.313141e+00	1.296413e+01
5.084295371259998e-06	2.592819e+00	7.313141e+00	1.296414e+01
5.085295371259999e-06	2.592819e+00	7.313145e+00	1.296414e+01
5.086295371259999e-06	2.592823e+00	7.313145e+00	1.296415e+01
5.087295371259999e-06	2.592823e+00	7.313148e+00	1.296415e+01
5.088295371259999e-06	2.592827e+00	7.313148e+00	1.296416e+01
5.089295371259998e-06	2.592827e+00	7.313152e+00	1.296416e+01
5.090295371259999e-06	2.592827e+00	7.313154e+00	1.296417e+01
5.091295371259999e-06	2.592831e+00	7.313152e+00	1.296417e+01
5.092295371259999e-06	2.592831e+00	7.313156e+00	1.296418e+01
5.093295371259999e-06	2.592831e+00	7.313156e+00	1.296418e+01
5.094295371259998e-06	2.592831e+00	7.313160e+00	1.296418e+01
5.095295371259999e-06	2.592834e+00	7.313156e+00	1.296418e+01
5.096295371259999e-06	2.592834e+00	7.313160e+00	1.296419e+01
5.097295371259999e-06	2.592834e+00	7.313160e+00	1.296419e+01
5.098295371259999e-06	2.592834e+00	7.313164e+00	1.296419e+01
5.099295371259999e-06	2.592834e+00	7.313164e+00	1.296419e+01
5.100295371259999e-06	2.592838e+00	7.313162e+00	1.296420e+01
5.101295371259998e-06	2.592838e+00	7.313162e+00	1.296420e+01
5.102295371259999e-06	2.592838e+00	7.313164e+00	1.296420e+01
5.103295371259999e-06	2.592838e+00	7.313164e+00	1.296420e+01
5.104295371259999e-06	2.592838e+00	7.313166e+00	1.296420e+01
5.105295371259999e-06	2.592838e+00	7.313166e+00	1.296420e+01
5.106295371259998e-06	2.592838e+00	7.313168e+00	1.296420e+01
5.107295371259999e-06	2.592838e+00	7.313168e+00	1.296420e+01
5.108295371259999e-06	2.592838e+00	7.313168e+00	1.296420e+01
5.109295371259999e-06	2.592838e+00	7.313168e+00	1.296421e+01
5.110295371259999e-06	2.592842e+00	7.313166e+00	1.296421e+01
5.111295371259998e-06	2.592842e+00	7.313166e+00	1.296421e+01
5.112295371259999e-06	2.592842e+00	7.313166e+00	1.296421e+01
5.113295371259999e-06	2.592842e+00	7.313166e+00	1.296421e+01
5.114295371259999e-06	2.592842e+00	7.313168e+00	1.296421e+01
5.115295371259999e-06	2.592842e+00	7.313168e+00	1.296421e+01
5.116295371259999e-06	2.592842e+00	7.313168e+00	1.296421e+01
5.117295371259999e-06	2.592842e+00	7.313168e+00	1.296421e+01
5.118295371259998e-06	2.592842e+00	7.313168e+00	1.296421e+01
5.119295371259999e-06	2.592842e+00	7.313168e+00	1.296421e+01
5.120295371259999e-06	2.592842e+00	7.313168e+00	1.296421e+01
5.121295371259999e-06	2.592842e+00	7.313168e+00	1.296421e+01
5.122295371259999e-06	2.592842e+00	7.313169e+00	1.296421e+01
5.123295371259998e-06	2.592842e+00	7.313169e+00	1.296421e+01
5.124295371259999e-06	2.592842e+00	7.313169e+00	1.296421e+01
5.125295371259999e-06	2.592842e+00	7.313169e+00	1.296421e+01
5.126295371259999e-06	2.592842e+00	7.313169e+00	1.296421e+01
5.127295371259999e-06	2.592842e+00	7.313169e+00	1.296421e+01
5.128295371259999e-06	2.592842e+00	7.313169e+00	1.296421e+01
5.129295371259999e-06	2.592842e+00	7.313169e+00	1.296421e+01
5.130295371259999e-06	2.592842e+00	7.313169e+00	1.296421e+01
5.131295371259999e-06	2.592842e+00	7.313169e+00	1.296421e+01
5.132295371259999e-06	2.592842e+00	7.313169e+00	1.296421e+01
5.133295371259999e-06	2.592842e+00	7.313169e+00	1.296421e+01
5.134295371259999e-06	2.592842e+00	7.313169e+00	1.296421e+01
5.135295371259998e-06	2.592842e+00	7.313169e+00	1.296421e+01
5.136295371259999e-06	2.592842e+00	7.313169e+00	1.296421e+01
5.137295371259999e-06	2.592842e+00	7.313169e+00	1.296421e+01
5.138295371259999e-06	2.592842e+00	7.313169e+00	1.296422e+01
5.139295371259999e-06	2.592842e+00	7.313171e+00	1.296422e+01
5.140295371259998e-06	2.592842e+00	7.313171e+00	1.296422e+01
5.141295371259999e-06	2.592842e+00	7.313171e+00	1.296422e+01
5.142295371259999e-06	2.592842e+00	7.313171e+00	1.296422e+01
5.143295371259999e-06	2.592842e+00	7.313171e+00	1.296422e+01
5.144295371259999e-06	2.592842e+00	7.313171e+00	1.296422e+01
5.145295371259999e-06	2.592842e+00	7.313171e+00	1.296422e+01
5.146295371259999e-06	2.592842e+00	7.313171e+00	1.296422e+01
5.147295371259999e-06	2.592842e+00	7.313171e+00	1.296422e+01
5.148295371259999e-06	2.592842e+00	7.313171e+00	1.296422e+01
5.149295371259999e-06	2.592842e+00	7.313171e+00	1.296422e+01
5.150295371259999e-06	2.592842e+00	7.313171e+00	1.296422e+01
5.151295371259999e-06	2.592842e+00	7.313171e+00	1.296422e+01
5.152295371259998e-06	2.592842e+00	7.313171e+00	1.296422e+01
5.153295371259999e-06	2.592842e+00	7.313171e+00	1.296422e+01
5.154295371259999e-06	2.592842e+00	7.313171e+00	1.296422e+01
5.155295371259999e-06	2.592842e+00	7.313171e+00	1.296422e+01
5.156295371259999e-06	2.592842e+00	7.313171e+00	1.296422e+01
5.157295371259999e-06	2.592842e+00	7.313171e+00	1.296422e+01
5.158295371259999e-06	2.592842e+00	7.313171e+00	1.296422e+01
5.159295371259999e-06	2.592842e+00	7.313171e+00	1.296422e+01
5.160295371259999e-06	2.592842e+00	7.313171e+00	1.296422e+01
5.161295371259999e-06	2.592842e+00	7.313171e+00	1.296422e+01
5.162295371259999e-06	2.592842e+00	7.313171e+00	1.296422e+01
5.163295371259999e-06	2.592842e+00	7.313171e+00	1.296422e+01
5.164295371259999e-06	2.592842e+00	7.313171e+00	1.296422e+01
5.165295371259999e-06	2.592842e+00	7.313171e+00	1.296422e+01
5.166295371259999e-06	2.592842e+00	7.313171e+00	1.296422e+01
5.167295371259999e-06	2.592842e+00	7.313171e+00	1.296422e+01
5.168295371259999e-06	2.592842e+00	7.313171e+00	1.296422e+01
5.169295371259998e-06	2.592842e+00	7.313171e+00	1.296422e+01
5.170295371259999e-06	2.592842e+00	7.313171e+00	1.296422e+01
5.171295371259999e-06	2.592842e+00	7.313171e+00	1.296422e+01
5.172295371259999e-06	2.592842e+00	7.313171e+00	1.296422e+01
5.173295371259999e-06	2.592842e+00	7.313171e+00	1.296422e+01
5.174295371259999e-06	2.592842e+00	7.313171e+00	1.296422e+01
5.175295371259999e-06	2.592842e+00	7.313171e+00	1.296422e+01
5.176295371259999e-06	2.592842e+00	7.313171e+00	1.296422e+01
5.177295371259999e-06	2.592842e+00	7.313171e+00	1.296422e+01
5.178295371259999e-06	2.592842e+00	7.313171e+00	1.296422e+01
5.179295371259999e-06	2.592842e+00	7.313171e+00	1.296422e+01
5.180295371259999e-06	2.592842e+00	7.313171e+00	1.296422e+01
5.181295371259999e-06	2.592842e+00	7.313171e+00	1.296422e+01
5.182295371259999e-06	2.592842e+00	7.313171e+00	1.296422e+01
5.183295371259999e-06	2.592842e+00	7.313171e+00	1.296422e+01
5.184295371259999e-06	2.592842e+00	7.313171e+00	1.296422e+01
5.185295371259999e-06	2.592842e+00	7.313171e+00	1.296422e+01
5.186295371259999e-06	2.592842e+00	7.313171e+00	1.296422e+01
5.187295371259999e-06	2.592842e+00	7.313171e+00	1.296422e+01
5.188295371259999e-06	2.592842e+00	7.313171e+00	1.296422e+01
5.189295371259999e-06	2.592842e+00	7.313171e+00	1.296422e+01
5.190295371259999e-06	2.592842e+00	7.313171e+00	1.296422e+01
5.191295371259999e-06	2.592842e+00	7.313171e+00	1.296422e+01
5.192295371259999e-06	2.592842e+00	7.313171e+00	1.296422e+01
5.193295371259999e-06	2.592842e+00	7.313171e+00	1.296422e+01
5.194295371259999e-06	2.592842e+00	7.313171e+00	1.296422e+01
5.195295371259999e-06	2.592842e+00	7.313171e+00	1.296422e+01
5.196295371259999e-06	2.592842e+00	7.313171e+00	1.296422e+01
5.197295371259999e-06	2.592842e+00	7.313171e+00	1.296422e+01
5.198295371259999e-06	2.592842e+00	7.313171e+00	1.296422e+01
5.199295371259999e-06	2.592842e+00	7.313171e+00	1.296422e+01
5.200295371259999e-06	2.592842e+00	7.313171e+00	1.296422e+01
5.201295371259999e-06	2.592842e+00	7.313171e+00	1.296422e+01
5.202295371259999e-06	2.592842e+00	7.313171e+00	1.296422e+01
5.203295371259999e-06	2.592842e+00	7.313171e+00	1.296422e+01
5.204295371259999e-06	2.592842e+00	7.313171e+00	1.296422e+01
5.205295371259999e-06	2.592842e+00	7.313171e+00	1.296422e+01
5.206295371259999e-06	2.592842e+00	7.313171e+00	1.296422e+01
5.207295371259999e-06	2.592842e+00	7.313171e+00	1.296422e+01
5.208295371259999e-06	2.592842e+00	7.313171e+00	1.296422e+01
5.209295371259999e-06	2.592842e+00	7.313171e+00	1.296422e+01
5.210295371259999e-06	2.592842e+00	7.313171e+00	1.296422e+01
5.211295371259999e-06	2.592842e+00	7.313171e+00	1.296422e+01
5.212295371259999e-06	2.592842e+00	7.313171e+00	1.296422e+01
5.213295371259999e-06	2.592842e+00	7.313171e+00	1.296422e+01
5.214295371259999e-06	2.592842e+00	7.313171e+00	1.296422e+01
5.215295371259999e-06	2.592842e+00	7.313171e+00	1.296422e+01
5.216200000000000e-06	2.592842e+00	7.313175e+00	1.296423e+01
5.216290462874000e-06	2.592846e+00	7.313280e+00	1.296455e+01
5.216471388622000e-06	2.592854e+00	7.313515e+00	1.296525e+01
5.216833240118001e-06	2.592888e+00	7.313992e+00	1.296667e+01
5.217556943110002e-06	2.593006e+00	7.314873e+00	1.296928e+01
5.218556943110001e-06	2.593254e+00	7.315945e+00	1.297247e+01
5.219556943110002e-06	2.593559e+00	7.316860e+00	1.297519e+01
5.220556943110001e-06	2.593910e+00	7.317600e+00	1.297740e+01
5.221556943110001e-06	2.594265e+00	7.318195e+00	1.297915e+01
5.222100000000000e-06	2.594456e+00	7.318422e+00	1.297983e+01
5.223100000000000e-06	2.594788e+00	7.318712e+00	1.298069e+01
5.223200000000000e-06	2.594814e+00	7.318602e+00	1.298036e+01
5.223400000000000e-06	2.594864e+00	7.318354e+00	1.297962e+01
5.223800000000000e-06	2.594929e+00	7.317827e+00	1.297805e+01
5.224600000000000e-06	2.594967e+00	7.316740e+00	1.297482e+01
5.225600000000000e-06	2.594872e+00	7.315300e+00	1.297055e+01
5.226600000000000e-06	2.594620e+00	7.313704e+00	1.296581e+01
5.227600000000000e-06	2.594208e+00	7.311827e+00	1.296022e+01
5.228600000000000e-06	2.593620e+00	7.309439e+00	1.295311e+01
5.229600000000000e-06	2.592800e+00	7.306042e+00	1.294300e+01
5.230600000000000e-06	2.591576e+00	7.300035e+00	1.292513e+01
5.231600000000000e-06	2.588825e+00	7.276855e+00	1.285606e+01
5.232600000000000e-06	2.583424e+00	7.221050e+00	1.268969e+01
5.232725000000000e-06	2.582176e+00	7.207823e+00	1.265032e+01
5.232975000000000e-06	2.578285e+00	7.171469e+00	1.254218e+01
5.233475000000000e-06	2.566372e+00	7.085272e+00	1.228587e+01
5.234475000000000e-06	2.530697e+00	6.849840e+00	1.158580e+01
5.234984475734271e-06	2.504112e+00	6.686790e+00	1.110155e+01
5.235384141561988e-06	2.476784e+00	6.568180e+00	1.075059e+01
5.235755160145077e-06	2.448208e+00	6.471315e+00	1.046389e+01
5.236041363865173e-06	2.423779e+00	6.356443e+00	1.012233e+01
5.236324024613240e-06	2.394741e+00	6.168232e+00	9.562920e+00
5.236724099629271e-06	2.340378e+00	5.728315e+00	8.257038e+00
5.237126825319576e-06	2.255611e+00	4.932915e+00	5.904231e+00
5.237663603043629e-06	2.076542e+00	3.173145e+00	7.307174e-01
5.238035234218638e-06	1.902748e+00	1.459820e+00	-4.275395e+00
5.238068293001301e-06	1.882980e+00	1.269463e+00	-4.827727e+00
5.238134410566626e-06	1.837254e+00	8.387909e-01	-6.069748e+00
5.238266645697276e-06	1.740524e+00	-6.560516e-02	-8.669447e+00
5.238267740121134e-06	1.739681e+00	-7.335281e-02	-8.691571e+00
5.238269928968850e-06	1.737938e+00	-8.916855e-02	-8.736588e+00
5.238274306664282e-06	1.734432e+00	-1.206970e-01	-8.826609e+00
5.238278769979857e-06	1.730827e+00	-1.527061e-01	-8.917922e+00
5.238283602087910e-06	1.726871e+00	-1.871758e-01	-9.016147e+00
5.238293266304016e-06	1.718807e+00	-2.557182e-01	-9.211268e+00
5.238304606202044e-06	1.709171e+00	-3.357162e-01	-9.438837e+00
5.238307063410199e-06	1.707047e+00	-3.507919e-01	-9.481242e+00
5.238311977826509e-06	1.702751e+00	-3.694115e-01	-9.531016e+00
5.238321806659129e-06	1.694130e+00	-3.857307e-01	-9.567394e+00
5.238341464324369e-06	1.676903e+00	-3.986931e-01	-9.580886e+00
5.238380779654849e-06	1.642754e+00	-4.044304e-01	-9.547071e+00
5.238457665346840e-06	1.577492e+00	-3.972855e-01	-9.426313e+00
5.238592572766490e-06	1.468239e+00	-3.779488e-01	-9.196817e+00
5.238862387605789e-06	1.268997e+00	-3.394051e-01	-8.746139e+00
5.239402017284389e-06	9.234810e-01	-2.698212e-01	-7.885351e+00
5.239998673940138e-06	6.074371e-01	-2.047157e-01	-6.991216e+00
5.240547921650365e-06	3.775711e-01	-1.565285e-01	-6.225876e+00
5.241142602739185e-06	1.845779e-01	-1.154594e-01	-5.455009e+00
5.241700803667946e-06	4.648590e-02	-8.560944e-02	-4.781093e+00
5.242288197373890e-06	-6.097794e-02	-6.189728e-02	-4.121114e+00
5.242850046894713e-06	-1.343803e-01	-4.521942e-02	-3.534432e+00
5.243433254482492e-06	-1.857948e-01	-3.295898e-02	-2.970708e+00
5.243998830864404e-06	-2.201233e-01	-2.362061e-02	-2.458906e+00
5.244244579907269e-06	-2.321014e-01	-1.999283e-02	-2.248906e+00
5.244488014171232e-06	-2.427101e-01	-1.698303e-02	-2.051011e+00
5.244590380240074e-06	-2.465363e-01	-1.593399e-02	-1.970663e+00
5.244691327341888e-06	-2.496605e-01	-1.503372e-02	-1.893792e+00
5.244838139577488e-06	-2.534828e-01	-1.388931e-02	-1.784868e+00
5.244975669806112e-06	-2.563286e-01	-1.296616e-02	-1.685897e+00
5.245148106637734e-06	-2.588654e-01	-1.202774e-02	-1.566553e+00
5.245361317827101e-06	-2.606239e-01	-1.115036e-02	-1.426158e+00
5.245624032259108e-06	-2.608528e-01	-1.047516e-02	-1.265474e+00
5.245988733438301e-06	-2.581329e-01	-1.016235e-02	-1.066610e+00
5.246514302769926e-06	-2.498436e-01	-1.061630e-02	-8.240213e-01
5.247093576348203e-06	-2.365494e-01	-1.197433e-02	-6.111192e-01
5.247721647023341e-06	-2.189445e-01	-1.412964e-02	-4.376520e-01
5.248352713359441e-06	-1.996918e-01	-1.667023e-02	-3.135109e-01
5.249178997823330e-06	-1.742935e-01	-2.014923e-02	-2.036640e-01
5.250025543603687e-06	-1.495056e-01	-2.360535e-02	-1.299762e-01
5.250775725059585e-06	-1.293983e-01	-2.642441e-02	-8.863686e-02
