time	V(N007,N016)	V(Vcc_led,Vi_led4)	I(D3)
0.000000000000000e+00	6.103516e-05	0.000000e+00	7.833913e-15
1.020500000000002e-06	6.103516e-05	0.000000e+00	5.599981e-15
2.044500000000005e-06	6.103516e-05	0.000000e+00	-1.652724e-15
3.068500000000007e-06	6.103516e-05	0.000000e+00	8.927466e-15
4.092500000000010e-06	6.103516e-05	0.000000e+00	-6.500714e-16
5.010000000000000e-06	6.103516e-05	0.000000e+00	-7.660539e-15
5.010018890682248e-06	6.484985e-05	0.000000e+00	-3.346401e-06
5.010056672046742e-06	6.103516e-05	0.000000e+00	-1.249013e-05
5.010132234775732e-06	4.959106e-05	0.000000e+00	-4.027405e-05
5.010220669541095e-06	3.433228e-05	0.000000e+00	-8.764485e-05
5.010327542932133e-06	7.629395e-06	0.000000e+00	-1.658471e-04
5.010469924141359e-06	-4.577637e-05	-3.814697e-06	-3.000401e-04
5.010684551333451e-06	-1.411438e-04	-7.629395e-06	-5.488596e-04
5.011009966042626e-06	-3.318787e-04	-2.288818e-05	-9.862053e-04
5.011482279640806e-06	-6.790161e-04	-4.959106e-05	-1.663424e-03
5.012028226846753e-06	-1.152039e-03	-9.918213e-05	-2.396995e-03
5.013028226846752e-06	-2.105713e-03	-2.250671e-04	-3.476217e-03
5.014028226846752e-06	-3.093719e-03	-3.738403e-04	-4.183986e-03
5.015028226846753e-06	-4.085541e-03	-5.378723e-04	-4.570195e-03
5.015200000000000e-06	-4.249573e-03	-5.645752e-04	-4.600047e-03
5.015543546306495e-06	-4.570007e-03	-6.179810e-04	-4.620163e-03
5.015627701198880e-06	1.424675e-01	-2.250671e-04	4.574461e-01
5.015662888772100e-06	4.911690e-01	1.014709e-03	1.549324e+00
5.015686213113729e-06	9.450226e-01	3.334045e-03	2.960232e+00
5.015708489543904e-06	1.429501e+00	7.247925e-03	4.445900e+00
5.015735913981888e-06	1.973381e+00	1.446915e-02	6.076309e+00
5.015790762857855e-06	2.951159e+00	3.493881e-02	8.915570e+00
5.015871266903147e-06	4.187201e+00	7.689667e-02	1.234765e+01
5.016014673114556e-06	5.909973e+00	1.762276e-01	1.685029e+01
5.016200000000000e-06	7.633631e+00	3.273697e-01	2.108041e+01
5.016218532688544e-06	7.745678e+00	3.448792e-01	2.131970e+01
5.016255598065633e-06	7.949456e+00	3.803215e-01	2.173969e+01
5.016329728819810e-06	8.278076e+00	4.526558e-01	2.235101e+01
5.016477990328165e-06	8.766177e+00	5.997467e-01	2.308842e+01
5.016550388729668e-06	8.935972e+00	6.721611e-01	2.325118e+01
5.016552122696917e-06	8.938396e+00	6.739006e-01	2.325024e+01
5.016555590631412e-06	8.941241e+00	6.773720e-01	2.324226e+01
5.016562526500404e-06	8.945561e+00	6.843033e-01	2.322202e+01
5.016573099963364e-06	8.950233e+00	6.948471e-01	2.318544e+01
5.016583949474281e-06	8.953173e+00	7.056351e-01	2.314259e+01
5.016605648496114e-06	8.955723e+00	7.270813e-01	2.304825e+01
5.016649046539779e-06	8.956587e+00	7.694969e-01	2.285257e+01
5.016726911996841e-06	8.956095e+00	8.439941e-01	2.251478e+01
5.016882642910964e-06	8.958801e+00	9.882813e-01	2.190321e+01
5.017072332610065e-06	8.967640e+00	1.157051e+00	2.124445e+01
5.017265919974810e-06	8.982017e+00	1.321239e+00	2.066044e+01
5.017493194643742e-06	9.010808e+00	1.505257e+00	2.009341e+01
5.017675444496021e-06	9.047412e+00	1.647102e+00	1.976134e+01
5.017830317811344e-06	9.084328e+00	1.763920e+00	1.959921e+01
5.017996494166845e-06	9.121346e+00	1.886444e+00	1.955413e+01
5.018268366255658e-06	9.170473e+00	2.083401e+00	1.961935e+01
5.018576675253349e-06	9.196634e+00	2.302670e+00	1.968373e+01
5.018916560947895e-06	9.178861e+00	2.538063e+00	1.962791e+01
5.019277501672465e-06	9.128388e+00	2.779419e+00	1.946937e+01
5.019625466891960e-06	9.073026e+00	3.002743e+00	1.929604e+01
5.020001562032919e-06	9.014452e+00	3.231464e+00	1.911271e+01
5.020753752314836e-06	8.903359e+00	3.657829e+00	1.876509e+01
5.021671783351931e-06	8.778686e+00	4.133549e+00	1.837510e+01
5.022671783351930e-06	8.656713e+00	4.598076e+00	1.799368e+01
5.023671783351931e-06	8.548388e+00	5.011181e+00	1.765504e+01
5.024671783351931e-06	8.452553e+00	5.377571e+00	1.735554e+01
5.025671783351931e-06	8.367805e+00	5.702572e+00	1.709076e+01
5.026671783351931e-06	8.292864e+00	5.990891e+00	1.685668e+01
5.027671783351930e-06	8.226589e+00	6.246704e+00	1.664971e+01
5.028671783351931e-06	8.167967e+00	6.473701e+00	1.646668e+01
5.029671783351930e-06	8.116105e+00	6.675159e+00	1.630479e+01
5.030671783351931e-06	8.070211e+00	6.853970e+00	1.616155e+01
5.031671783351931e-06	8.029591e+00	7.012695e+00	1.603479e+01
5.032671783351931e-06	7.993629e+00	7.153606e+00	1.592258e+01
5.033671783351931e-06	7.961786e+00	7.278721e+00	1.582323e+01
5.034671783351930e-06	7.933582e+00	7.389816e+00	1.573525e+01
5.035671783351931e-06	7.908598e+00	7.488476e+00	1.565732e+01
5.036671783351931e-06	7.886463e+00	7.576096e+00	1.558828e+01
5.037671783351931e-06	7.866843e+00	7.653919e+00	1.552710e+01
5.038671783351931e-06	7.849456e+00	7.723049e+00	1.547287e+01
5.039671783351930e-06	7.834042e+00	7.784462e+00	1.542481e+01
5.040671783351931e-06	7.820372e+00	7.839020e+00	1.538219e+01
5.041671783351931e-06	7.808250e+00	7.887493e+00	1.534440e+01
5.042671783351931e-06	7.797501e+00	7.930565e+00	1.531088e+01
5.043671783351931e-06	7.787966e+00	7.968838e+00	1.528115e+01
5.044671783351931e-06	7.779506e+00	8.002848e+00	1.525478e+01
5.045671783351931e-06	7.772000e+00	8.033072e+00	1.523138e+01
5.046671783351930e-06	7.765342e+00	8.059933e+00	1.521062e+01
5.047671783351931e-06	7.759431e+00	8.083809e+00	1.519219e+01
5.048671783351931e-06	7.754183e+00	8.105030e+00	1.517584e+01
5.049671783351931e-06	7.749527e+00	8.123894e+00	1.516133e+01
5.050671783351931e-06	7.745394e+00	8.140663e+00	1.514844e+01
5.051671783351930e-06	7.741723e+00	8.155569e+00	1.513700e+01
5.052671783351931e-06	7.738464e+00	8.168821e+00	1.512685e+01
5.053671783351931e-06	7.735573e+00	8.180603e+00	1.511783e+01
5.054671783351931e-06	7.733004e+00	8.191080e+00	1.510982e+01
5.055671783351931e-06	7.730723e+00	8.200394e+00	1.510271e+01
5.056671783351930e-06	7.728697e+00	8.208675e+00	1.509640e+01
5.057671783351931e-06	7.726898e+00	8.216042e+00	1.509079e+01
5.058671783351931e-06	7.725300e+00	8.222589e+00	1.508581e+01
5.059671783351931e-06	7.723878e+00	8.228415e+00	1.508138e+01
5.060671783351931e-06	7.722619e+00	8.233593e+00	1.507745e+01
5.061671783351931e-06	7.721498e+00	8.238201e+00	1.507396e+01
5.062671783351931e-06	7.720503e+00	8.242298e+00	1.507086e+01
5.063671783351930e-06	7.719620e+00	8.245941e+00	1.506810e+01
5.064671783351931e-06	7.718834e+00	8.249184e+00	1.506565e+01
5.065671783351931e-06	7.718135e+00	8.252066e+00	1.506348e+01
5.066671783351931e-06	7.717514e+00	8.254631e+00	1.506155e+01
5.067671783351931e-06	7.716964e+00	8.256912e+00	1.505983e+01
5.068671783351930e-06	7.716474e+00	8.258942e+00	1.505830e+01
5.069671783351931e-06	7.716040e+00	8.260748e+00	1.505695e+01
5.070671783351931e-06	7.715652e+00	8.262354e+00	1.505574e+01
5.071671783351931e-06	7.715309e+00	8.263783e+00	1.505467e+01
5.072671783351931e-06	7.715004e+00	8.265055e+00	1.505372e+01
5.073671783351931e-06	7.714732e+00	8.266186e+00	1.505287e+01
5.074671783351931e-06	7.714491e+00	8.267193e+00	1.505212e+01
5.075671783351931e-06	7.714277e+00	8.268089e+00	1.505145e+01
5.076671783351931e-06	7.714087e+00	8.268887e+00	1.505086e+01
5.077671783351931e-06	7.713917e+00	8.269596e+00	1.505033e+01
5.078671783351931e-06	7.713767e+00	8.270227e+00	1.504986e+01
5.079671783351931e-06	7.713633e+00	8.270790e+00	1.504945e+01
5.080671783351930e-06	7.713515e+00	8.271290e+00	1.504908e+01
5.081671783351931e-06	7.713409e+00	8.271736e+00	1.504875e+01
5.082671783351931e-06	7.713316e+00	8.272133e+00	1.504846e+01
5.083671783351931e-06	7.713232e+00	8.272486e+00	1.504820e+01
5.084671783351931e-06	7.713158e+00	8.272800e+00	1.504797e+01
5.085671783351930e-06	7.713093e+00	8.273079e+00	1.504776e+01
5.086671783351931e-06	7.713033e+00	8.273327e+00	1.504758e+01
5.087671783351931e-06	7.712982e+00	8.273550e+00	1.504741e+01
5.088671783351931e-06	7.712935e+00	8.273746e+00	1.504727e+01
5.089671783351931e-06	7.712893e+00	8.273922e+00	1.504714e+01
5.090671783351931e-06	7.712857e+00	8.274080e+00	1.504703e+01
5.091671783351931e-06	7.712825e+00	8.274220e+00	1.504693e+01
5.092671783351931e-06	7.712795e+00	8.274343e+00	1.504684e+01
5.093671783351931e-06	7.712770e+00	8.274454e+00	1.504676e+01
5.094671783351931e-06	7.712747e+00	8.274553e+00	1.504669e+01
5.095671783351931e-06	7.712726e+00	8.274641e+00	1.504662e+01
5.096671783351931e-06	7.712708e+00	8.274719e+00	1.504657e+01
5.097671783351930e-06	7.712691e+00	8.274788e+00	1.504652e+01
5.098671783351931e-06	7.712678e+00	8.274851e+00	1.504647e+01
5.099671783351931e-06	7.712666e+00	8.274906e+00	1.504643e+01
5.100671783351931e-06	7.712654e+00	8.274956e+00	1.504640e+01
5.101671783351931e-06	7.712645e+00	8.275000e+00	1.504637e+01
5.102671783351931e-06	7.712636e+00	8.275040e+00	1.504634e+01
5.103671783351931e-06	7.712628e+00	8.275074e+00	1.504631e+01
5.104671783351931e-06	7.712622e+00	8.275105e+00	1.504629e+01
5.105671783351931e-06	7.712615e+00	8.275133e+00	1.504627e+01
5.106671783351931e-06	7.712608e+00	8.275158e+00	1.504625e+01
5.107671783351931e-06	7.712604e+00	8.275181e+00	1.504624e+01
5.108671783351931e-06	7.712599e+00	8.275200e+00	1.504622e+01
5.109671783351931e-06	7.712595e+00	8.275217e+00	1.504621e+01
5.110671783351931e-06	7.712590e+00	8.275232e+00	1.504620e+01
5.111671783351931e-06	7.712587e+00	8.275246e+00	1.504619e+01
5.112671783351931e-06	7.712586e+00	8.275259e+00	1.504618e+01
5.113671783351931e-06	7.712584e+00	8.275270e+00	1.504618e+01
5.114671783351930e-06	7.712580e+00	8.275280e+00	1.504617e+01
5.115671783351931e-06	7.712580e+00	8.275290e+00	1.504616e+01
5.116671783351931e-06	7.712578e+00	8.275297e+00	1.504616e+01
5.117671783351931e-06	7.712577e+00	8.275303e+00	1.504615e+01
5.118671783351931e-06	7.712576e+00	8.275311e+00	1.504615e+01
5.119671783351931e-06	7.712574e+00	8.275316e+00	1.504614e+01
5.120671783351931e-06	7.712572e+00	8.275320e+00	1.504614e+01
5.121671783351931e-06	7.712571e+00	8.275326e+00	1.504614e+01
5.122671783351931e-06	7.712571e+00	8.275330e+00	1.504614e+01
5.123671783351931e-06	7.712570e+00	8.275333e+00	1.504613e+01
5.124671783351931e-06	7.712569e+00	8.275335e+00	1.504613e+01
5.125671783351931e-06	7.712568e+00	8.275339e+00	1.504613e+01
5.126671783351931e-06	7.712567e+00	8.275341e+00	1.504613e+01
5.127671783351931e-06	7.712566e+00	8.275343e+00	1.504613e+01
5.128671783351931e-06	7.712567e+00	8.275345e+00	1.504613e+01
5.129671783351931e-06	7.712566e+00	8.275347e+00	1.504612e+01
5.130671783351931e-06	7.712566e+00	8.275349e+00	1.504612e+01
5.131671783351931e-06	7.712565e+00	8.275351e+00	1.504612e+01
5.132671783351931e-06	7.712566e+00	8.275352e+00	1.504612e+01
5.133671783351931e-06	7.712564e+00	8.275352e+00	1.504612e+01
5.134671783351931e-06	7.712565e+00	8.275354e+00	1.504612e+01
5.135671783351931e-06	7.712565e+00	8.275354e+00	1.504612e+01
5.136671783351931e-06	7.712566e+00	8.275356e+00	1.504612e+01
5.137671783351931e-06	7.712564e+00	8.275356e+00	1.504612e+01
5.138671783351931e-06	7.712564e+00	8.275358e+00	1.504612e+01
5.139671783351931e-06	7.712564e+00	8.275358e+00	1.504612e+01
5.140671783351931e-06	7.712564e+00	8.275358e+00	1.504612e+01
5.141671783351931e-06	7.712563e+00	8.275358e+00	1.504612e+01
5.142671783351931e-06	7.712564e+00	8.275360e+00	1.504612e+01
5.143671783351931e-06	7.712564e+00	8.275360e+00	1.504612e+01
5.144671783351931e-06	7.712564e+00	8.275360e+00	1.504612e+01
5.145671783351931e-06	7.712564e+00	8.275360e+00	1.504612e+01
5.146671783351931e-06	7.712564e+00	8.275360e+00	1.504612e+01
5.147671783351931e-06	7.712564e+00	8.275360e+00	1.504612e+01
5.148671783351931e-06	7.712564e+00	8.275362e+00	1.504612e+01
5.149671783351931e-06	7.712564e+00	8.275362e+00	1.504612e+01
5.150671783351931e-06	7.712564e+00	8.275362e+00	1.504612e+01
5.151671783351931e-06	7.712564e+00	8.275362e+00	1.504612e+01
5.152671783351931e-06	7.712564e+00	8.275362e+00	1.504612e+01
5.153671783351931e-06	7.712564e+00	8.275362e+00	1.504612e+01
5.154671783351931e-06	7.712564e+00	8.275362e+00	1.504612e+01
5.155671783351931e-06	7.712564e+00	8.275362e+00	1.504612e+01
5.156671783351931e-06	7.712564e+00	8.275362e+00	1.504612e+01
5.157671783351931e-06	7.712564e+00	8.275362e+00	1.504612e+01
5.158671783351931e-06	7.712564e+00	8.275362e+00	1.504612e+01
5.159671783351931e-06	7.712564e+00	8.275362e+00	1.504611e+01
5.160671783351931e-06	7.712564e+00	8.275362e+00	1.504611e+01
5.161671783351931e-06	7.712564e+00	8.275362e+00	1.504611e+01
5.162671783351931e-06	7.712564e+00	8.275362e+00	1.504611e+01
5.163671783351931e-06	7.712564e+00	8.275362e+00	1.504611e+01
5.164671783351931e-06	7.712564e+00	8.275362e+00	1.504611e+01
5.165671783351931e-06	7.712564e+00	8.275362e+00	1.504611e+01
5.166671783351931e-06	7.712565e+00	8.275362e+00	1.504611e+01
5.167671783351931e-06	7.712565e+00	8.275362e+00	1.504611e+01
5.168671783351931e-06	7.712565e+00	8.275362e+00	1.504611e+01
5.169671783351931e-06	7.712565e+00	8.275362e+00	1.504611e+01
5.170671783351931e-06	7.712565e+00	8.275362e+00	1.504611e+01
5.171671783351931e-06	7.712565e+00	8.275362e+00	1.504611e+01
5.172671783351931e-06	7.712565e+00	8.275364e+00	1.504611e+01
5.173671783351931e-06	7.712565e+00	8.275364e+00	1.504611e+01
5.174671783351931e-06	7.712564e+00	8.275364e+00	1.504611e+01
5.175671783351931e-06	7.712564e+00	8.275364e+00	1.504611e+01
5.176671783351931e-06	7.712564e+00	8.275364e+00	1.504611e+01
5.177671783351931e-06	7.712564e+00	8.275364e+00	1.504611e+01
5.178671783351931e-06	7.712564e+00	8.275364e+00	1.504611e+01
5.179671783351931e-06	7.712564e+00	8.275364e+00	1.504611e+01
5.180671783351931e-06	7.712563e+00	8.275364e+00	1.504611e+01
5.181671783351931e-06	7.712563e+00	8.275364e+00	1.504611e+01
5.182671783351931e-06	7.712563e+00	8.275364e+00	1.504611e+01
5.183671783351931e-06	7.712563e+00	8.275364e+00	1.504611e+01
5.184671783351931e-06	7.712564e+00	8.275364e+00	1.504611e+01
5.185671783351931e-06	7.712564e+00	8.275364e+00	1.504611e+01
5.186671783351931e-06	7.712564e+00	8.275364e+00	1.504611e+01
5.187671783351931e-06	7.712564e+00	8.275364e+00	1.504611e+01
5.188671783351931e-06	7.712564e+00	8.275364e+00	1.504611e+01
5.189671783351931e-06	7.712564e+00	8.275364e+00	1.504611e+01
5.190671783351931e-06	7.712564e+00	8.275364e+00	1.504611e+01
5.192671783351931e-06	7.712564e+00	8.275364e+00	1.504611e+01
5.194671783351931e-06	7.712564e+00	8.275364e+00	1.504611e+01
5.196671783351931e-06	7.712564e+00	8.275364e+00	1.504611e+01
5.198671783351931e-06	7.712564e+00	8.275364e+00	1.504611e+01
5.200671783351931e-06	7.712564e+00	8.275364e+00	1.504611e+01
5.202671783351931e-06	7.712564e+00	8.275364e+00	1.504611e+01
5.204671783351931e-06	7.712564e+00	8.275364e+00	1.504611e+01
5.206671783351931e-06	7.712564e+00	8.275364e+00	1.504611e+01
5.208671783351931e-06	7.712563e+00	8.275364e+00	1.504611e+01
5.211671783351931e-06	7.712564e+00	8.275364e+00	1.504611e+01
5.213671783351931e-06	7.712564e+00	8.275364e+00	1.504611e+01
5.214671783351931e-06	7.712564e+00	8.275364e+00	1.504611e+01
5.215200000000000e-06	7.712564e+00	8.275364e+00	1.504611e+01
5.216200000000000e-06	7.712566e+00	8.275364e+00	1.504613e+01
5.216300000000000e-06	7.712718e+00	8.275366e+00	1.504660e+01
5.216500000000000e-06	7.713041e+00	8.275379e+00	1.504762e+01
5.216900000000000e-06	7.713687e+00	8.275436e+00	1.504963e+01
5.217700000000000e-06	7.714863e+00	8.275642e+00	1.505330e+01
5.218700000000000e-06	7.716137e+00	8.276028e+00	1.505727e+01
5.219700000000000e-06	7.717191e+00	8.276535e+00	1.506055e+01
5.220700000000000e-06	7.718016e+00	8.277126e+00	1.506312e+01
5.221700000000000e-06	7.718646e+00	8.277769e+00	1.506508e+01
5.222100000000000e-06	7.718833e+00	8.278034e+00	1.506566e+01
5.222300000000000e-06	7.718901e+00	8.278168e+00	1.506587e+01
5.222700000000000e-06	7.718993e+00	8.278431e+00	1.506616e+01
5.223100000000000e-06	7.719056e+00	8.278694e+00	1.506636e+01
5.223140000000000e-06	7.719003e+00	8.278719e+00	1.506619e+01
5.223220000000000e-06	7.718883e+00	8.278769e+00	1.506581e+01
5.223380000000000e-06	7.718611e+00	8.278860e+00	1.506496e+01
5.223700000000000e-06	7.718050e+00	8.279015e+00	1.506320e+01
5.224340000000000e-06	7.716908e+00	8.279232e+00	1.505965e+01
5.225340000000000e-06	7.715055e+00	8.279366e+00	1.505387e+01
5.226340000000000e-06	7.713048e+00	8.279247e+00	1.504762e+01
5.227340000000000e-06	7.710742e+00	8.278847e+00	1.504042e+01
5.228340000000000e-06	7.707888e+00	8.278128e+00	1.503151e+01
5.229339999999999e-06	7.703945e+00	8.277002e+00	1.501921e+01
5.230340000000000e-06	7.697331e+00	8.275246e+00	1.499857e+01
5.231340000000000e-06	7.674784e+00	8.271637e+00	1.492810e+01
5.232340000000000e-06	7.621084e+00	8.265017e+00	1.476017e+01
5.232465000000000e-06	7.606806e+00	8.263519e+00	1.471552e+01
5.232715000000000e-06	7.564528e+00	8.258713e+00	1.458343e+01
5.233214999999999e-06	7.468638e+00	8.243444e+00	1.428439e+01
5.234215000000000e-06	7.204198e+00	8.195522e+00	1.345966e+01
5.234822889037843e-06	6.962405e+00	8.150326e+00	1.270626e+01
5.235266539169233e-06	6.793239e+00	8.104366e+00	1.218126e+01
5.235696850589656e-06	6.650908e+00	8.051662e+00	1.173958e+01
5.235990994253873e-06	6.493025e+00	8.010555e+00	1.124729e+01
5.236275282222012e-06	6.237804e+00	7.962269e+00	1.045216e+01
5.236647614045277e-06	5.698710e+00	7.879971e+00	8.775380e+00
5.237021535664521e-06	4.744913e+00	7.755203e+00	5.822793e+00
5.237571344782635e-06	2.475222e+00	7.473061e+00	-1.147150e+00
5.237936888675496e-06	3.938503e-01	7.216663e+00	-7.489588e+00
5.237944107906224e-06	3.443928e-01	7.210381e+00	-7.639054e+00
5.237958546367681e-06	2.379227e-01	7.196556e+00	-7.959188e+00
5.237987423290594e-06	1.970673e-02	7.168438e+00	-8.614758e+00
5.238006503749490e-06	-1.270714e-01	7.149467e+00	-9.055140e+00
5.238020274755298e-06	-2.334099e-01	7.135433e+00	-9.373517e+00
5.238031073747457e-06	-3.162842e-01	7.124157e+00	-9.621140e+00
5.238041489046002e-06	-3.958588e-01	7.112972e+00	-9.858481e+00
5.238062319643090e-06	-5.549698e-01	7.089745e+00	-1.033186e+01
5.238095101781704e-06	-8.063507e-01	7.051086e+00	-1.107710e+01
5.238169398905272e-06	-1.378532e+00	6.956360e+00	-1.276486e+01
5.238200393071728e-06	-1.615845e+00	6.913002e+00	-1.345898e+01
5.238208141613342e-06	-1.669598e+00	6.901859e+00	-1.361437e+01
5.238223638696570e-06	-1.754021e+00	6.879139e+00	-1.385118e+01
5.238227512967377e-06	-1.764305e+00	6.873428e+00	-1.387595e+01
5.238250758592219e-06	-1.767673e+00	6.839111e+00	-1.383911e+01
5.238467717757414e-06	-1.703606e+00	6.528732e+00	-1.319683e+01
5.238715671089064e-06	-1.624062e+00	6.196342e+00	-1.244720e+01
5.239211577752365e-06	-1.474247e+00	5.584835e+00	-1.098422e+01
5.239800402100094e-06	-1.313744e+00	4.935963e+00	-9.308991e+00
5.240356679806939e-06	-1.181492e+00	4.403233e+00	-7.790234e+00
5.240959988979466e-06	-1.058357e+00	3.907440e+00	-6.200340e+00
5.241516281118079e-06	-9.620247e-01	3.519062e+00	-4.774665e+00
5.242102593805803e-06	-8.769188e-01	3.175716e+00	-3.360295e+00
5.242662763366732e-06	-8.087311e-01	2.901928e+00	-2.214478e+00
5.243247348096216e-06	-7.484512e-01	2.662769e+00	-1.321920e+00
5.243812590212194e-06	-6.981163e-01	2.465996e+00	-7.372589e-01
5.244393609177754e-06	-6.526299e-01	2.290649e+00	-3.545012e-01
5.244960873290112e-06	-6.129417e-01	2.139290e+00	-1.242707e-01
5.245539573795913e-06	-5.763283e-01	2.000725e+00	1.534673e-02
5.246108801855465e-06	-5.434723e-01	1.876945e+00	9.434785e-02
5.246686005768941e-06	-5.128860e-01	1.762047e+00	1.379784e-01
5.247256468518805e-06	-4.850235e-01	1.657482e+00	1.594544e-01
5.247832488236105e-06	-4.591599e-01	1.560402e+00	1.676640e-01
5.248578397919625e-06	-4.285851e-01	1.445538e+00	1.676542e-01
5.249448228816080e-06	-3.964119e-01	1.324493e+00	1.605357e-01
5.250448228816080e-06	-3.634720e-01	1.200249e+00	1.482287e-01
5.251448228816080e-06	-3.343430e-01	1.090088e+00	1.346309e-01
5.252448228816081e-06	-3.086815e-01	9.927597e-01	1.212385e-01
5.253448228816080e-06	-2.860565e-01	9.066963e-01	1.087073e-01
5.254448228816081e-06	-2.660980e-01	8.305550e-01	9.724162e-02
5.255448228816080e-06	-2.484703e-01	7.631607e-01	8.686303e-02
