time	V(N023,Vo_led4)	V(Vcc_led,Vi_led4)	I(D31)
0.000000000000000e+00	6.484985e-05	0.000000e+00	-4.451180e-15
1.020500000000002e-06	6.484985e-05	0.000000e+00	9.324907e-15
2.044500000000005e-06	6.484985e-05	0.000000e+00	4.157234e-15
3.068500000000007e-06	6.484985e-05	0.000000e+00	6.923475e-15
4.092500000000010e-06	6.484985e-05	0.000000e+00	2.674382e-15
5.010000000000000e-06	6.484985e-05	0.000000e+00	4.440892e-16
5.010019715145013e-06	6.484985e-05	0.000000e+00	-3.380623e-06
5.010059145435038e-06	6.103516e-05	0.000000e+00	-1.271263e-05
5.010138006015088e-06	4.959106e-05	0.000000e+00	-4.114109e-05
5.010227035294069e-06	3.051758e-05	0.000000e+00	-8.793086e-05
5.010336559075816e-06	3.814697e-06	0.000000e+00	-1.665689e-04
5.010481969313194e-06	-4.577637e-05	-3.814697e-06	-3.010479e-04
5.010702518271233e-06	-1.525879e-04	-7.629395e-06	-5.522216e-04
5.011035725063062e-06	-3.585815e-04	-2.288818e-05	-9.924310e-04
5.011518584884819e-06	-7.133484e-04	-4.959106e-05	-1.673615e-03
5.012049753897344e-06	-1.178741e-03	-9.918213e-05	-2.376915e-03
5.013049753897344e-06	-2.143860e-03	-2.212524e-04	-3.444669e-03
5.014049753897344e-06	-3.139496e-03	-3.662109e-04	-4.150417e-03
5.015049753897344e-06	-4.123688e-03	-5.226135e-04	-4.542078e-03
5.015200000000000e-06	-4.272461e-03	-5.455017e-04	-4.569989e-03
5.015500492205312e-06	-4.550934e-03	-5.912781e-04	-4.592275e-03
5.015599015589376e-06	4.501724e-02	-4.348755e-04	1.436150e-01
5.015645193776747e-06	2.335663e-01	1.258850e-04	7.075136e-01
5.015664564659407e-06	4.936333e-01	1.029968e-03	1.483415e+00
5.015683924337226e-06	9.016418e-01	2.952576e-03	2.693701e+00
5.015702526369323e-06	1.307873e+00	5.897522e-03	3.885131e+00
5.015727616324634e-06	1.815426e+00	1.174927e-02	5.346054e+00
5.015777796235256e-06	2.724026e+00	2.899933e-02	7.880197e+00
5.015878156056498e-06	4.300821e+00	7.736969e-02	1.209286e+01
5.015988121264548e-06	5.652912e+00	1.487656e-01	1.550384e+01
5.016200000000000e-06	7.650498e+00	3.127022e-01	2.022516e+01
5.016221187873545e-06	7.777575e+00	3.318596e-01	2.048542e+01
5.016263563620635e-06	8.005524e+00	3.706703e-01	2.093466e+01
5.016348315114816e-06	8.369661e+00	4.498215e-01	2.157938e+01
5.016484032782208e-06	8.798617e+00	5.784721e-01	2.218668e+01
5.016553133253584e-06	8.950474e+00	6.443977e-01	2.231231e+01
5.016555313238289e-06	8.953205e+00	6.464767e-01	2.231046e+01
5.016559673207695e-06	8.956171e+00	6.506271e-01	2.229952e+01
5.016568393146509e-06	8.960506e+00	6.589165e-01	2.227298e+01
5.016583852145430e-06	8.965473e+00	6.735687e-01	2.221839e+01
5.016599330355697e-06	8.968029e+00	6.881638e-01	2.215749e+01
5.016630286776233e-06	8.969518e+00	7.170944e-01	2.202825e+01
5.016692199617305e-06	8.969818e+00	7.739639e-01	2.177356e+01
5.016816025299447e-06	8.971936e+00	8.845177e-01	2.130381e+01
5.016997410437395e-06	8.980668e+00	1.040318e+00	2.069274e+01
5.017194168062481e-06	8.994155e+00	1.201759e+00	2.010674e+01
5.017385850668373e-06	9.012343e+00	1.352165e+00	1.960329e+01
5.017516393995950e-06	9.034110e+00	1.450603e+00	1.931714e+01
5.017662729993599e-06	9.069007e+00	1.557468e+00	1.905515e+01
5.017775908439059e-06	9.098051e+00	1.637962e+00	1.888575e+01
5.017920934447408e-06	9.133380e+00	1.738174e+00	1.874492e+01
5.018210986464110e-06	9.193455e+00	1.933071e+00	1.866322e+01
5.018553586794556e-06	9.232546e+00	2.157070e+00	1.868291e+01
5.018893988149402e-06	9.223288e+00	2.372559e+00	1.864976e+01
5.019267991856710e-06	9.177312e+00	2.600483e+00	1.851977e+01
5.019596980412797e-06	9.129755e+00	2.792362e+00	1.837930e+01
5.019972253777386e-06	9.076619e+00	2.998852e+00	1.821981e+01
5.020722800506564e-06	8.976283e+00	3.381321e+00	1.792031e+01
5.021673410258091e-06	8.860297e+00	3.820305e+00	1.757394e+01
5.022673410258090e-06	8.751794e+00	4.229874e+00	1.725002e+01
5.023673410258091e-06	8.656502e+00	4.589886e+00	1.696561e+01
5.024673410258090e-06	8.573076e+00	4.905773e+00	1.671667e+01
5.025673410258091e-06	8.500081e+00	5.182976e+00	1.649890e+01
5.026673410258090e-06	8.436219e+00	5.426254e+00	1.630842e+01
5.027673410258091e-06	8.380348e+00	5.639790e+00	1.614179e+01
5.028673410258091e-06	8.331461e+00	5.827240e+00	1.599602e+01
5.029673410258090e-06	8.288680e+00	5.991810e+00	1.586847e+01
5.030673410258091e-06	8.251236e+00	6.136314e+00	1.575684e+01
5.031673410258090e-06	8.218457e+00	6.263210e+00	1.565913e+01
5.032673410258091e-06	8.189755e+00	6.374657e+00	1.557359e+01
5.033673410258091e-06	8.164620e+00	6.472542e+00	1.549868e+01
5.034673410258090e-06	8.142604e+00	6.558533e+00	1.543307e+01
5.035673410258091e-06	8.123317e+00	6.634079e+00	1.537559e+01
5.036673410258090e-06	8.106417e+00	6.700451e+00	1.532524e+01
5.037673410258091e-06	8.091607e+00	6.758774e+00	1.528111e+01
5.038673410258091e-06	8.078625e+00	6.810028e+00	1.524243e+01
5.039673410258090e-06	8.067247e+00	6.855068e+00	1.520853e+01
5.040673410258091e-06	8.057269e+00	6.894661e+00	1.517880e+01
5.041673410258090e-06	8.048521e+00	6.929459e+00	1.515274e+01
5.042673410258091e-06	8.040847e+00	6.960052e+00	1.512988e+01
5.043673410258091e-06	8.034118e+00	6.986950e+00	1.510983e+01
5.044673410258091e-06	8.028214e+00	7.010597e+00	1.509225e+01
5.045673410258091e-06	8.023035e+00	7.031387e+00	1.507682e+01
5.046673410258090e-06	8.018491e+00	7.049675e+00	1.506328e+01
5.047673410258091e-06	8.014503e+00	7.065758e+00	1.505140e+01
5.048673410258090e-06	8.011003e+00	7.079899e+00	1.504098e+01
5.049673410258091e-06	8.007932e+00	7.092335e+00	1.503183e+01
5.050673410258091e-06	8.005236e+00	7.103275e+00	1.502380e+01
5.051673410258090e-06	8.002869e+00	7.112900e+00	1.501675e+01
5.052673410258091e-06	8.000791e+00	7.121368e+00	1.501056e+01
5.053673410258090e-06	7.998967e+00	7.128819e+00	1.500513e+01
5.054673410258091e-06	7.997366e+00	7.135372e+00	1.500036e+01
5.055673410258091e-06	7.995960e+00	7.141140e+00	1.499617e+01
5.056673410258091e-06	7.994725e+00	7.146217e+00	1.499249e+01
5.057673410258091e-06	7.993640e+00	7.150684e+00	1.498926e+01
5.058673410258090e-06	7.992688e+00	7.154613e+00	1.498643e+01
5.059673410258091e-06	7.991851e+00	7.158073e+00	1.498393e+01
5.060673410258091e-06	7.991117e+00	7.161121e+00	1.498175e+01
5.061673410258091e-06	7.990472e+00	7.163803e+00	1.497982e+01
5.062673410258091e-06	7.989905e+00	7.166164e+00	1.497814e+01
5.063673410258090e-06	7.989407e+00	7.168243e+00	1.497665e+01
5.064673410258091e-06	7.988970e+00	7.170071e+00	1.497535e+01
5.065673410258090e-06	7.988586e+00	7.171684e+00	1.497421e+01
5.066673410258091e-06	7.988248e+00	7.173103e+00	1.497320e+01
5.067673410258091e-06	7.987952e+00	7.174351e+00	1.497232e+01
5.068673410258091e-06	7.987692e+00	7.175453e+00	1.497154e+01
5.069673410258091e-06	7.987462e+00	7.176422e+00	1.497086e+01
5.070673410258090e-06	7.987262e+00	7.177277e+00	1.497026e+01
5.071673410258091e-06	7.987085e+00	7.178028e+00	1.496974e+01
5.072673410258091e-06	7.986931e+00	7.178692e+00	1.496928e+01
5.073673410258091e-06	7.986794e+00	7.179276e+00	1.496887e+01
5.074673410258091e-06	7.986674e+00	7.179790e+00	1.496851e+01
5.075673410258090e-06	7.986569e+00	7.180244e+00	1.496820e+01
5.076673410258091e-06	7.986477e+00	7.180645e+00	1.496793e+01
5.077673410258091e-06	7.986396e+00	7.180996e+00	1.496768e+01
5.078673410258091e-06	7.986324e+00	7.181309e+00	1.496747e+01
5.079673410258091e-06	7.986261e+00	7.181583e+00	1.496729e+01
5.080673410258090e-06	7.986207e+00	7.181824e+00	1.496712e+01
5.081673410258091e-06	7.986159e+00	7.182037e+00	1.496698e+01
5.082673410258090e-06	7.986116e+00	7.182228e+00	1.496685e+01
5.083673410258091e-06	7.986079e+00	7.182392e+00	1.496674e+01
5.084673410258091e-06	7.986046e+00	7.182537e+00	1.496664e+01
5.085673410258091e-06	7.986017e+00	7.182667e+00	1.496656e+01
5.086673410258091e-06	7.985992e+00	7.182781e+00	1.496648e+01
5.087673410258090e-06	7.985970e+00	7.182880e+00	1.496641e+01
5.088673410258091e-06	7.985950e+00	7.182968e+00	1.496636e+01
5.089673410258091e-06	7.985933e+00	7.183048e+00	1.496630e+01
5.090673410258091e-06	7.985918e+00	7.183121e+00	1.496626e+01
5.091673410258091e-06	7.985905e+00	7.183182e+00	1.496622e+01
5.092673410258090e-06	7.985894e+00	7.183235e+00	1.496619e+01
5.093673410258091e-06	7.985883e+00	7.183281e+00	1.496616e+01
5.094673410258091e-06	7.985874e+00	7.183327e+00	1.496613e+01
5.095673410258091e-06	7.985866e+00	7.183361e+00	1.496611e+01
5.096673410258091e-06	7.985859e+00	7.183395e+00	1.496609e+01
5.097673410258091e-06	7.985853e+00	7.183426e+00	1.496607e+01
5.098673410258091e-06	7.985848e+00	7.183449e+00	1.496605e+01
5.099673410258090e-06	7.985843e+00	7.183472e+00	1.496604e+01
5.100673410258091e-06	7.985839e+00	7.183495e+00	1.496603e+01
5.101673410258091e-06	7.985836e+00	7.183510e+00	1.496602e+01
5.102673410258091e-06	7.985832e+00	7.183525e+00	1.496601e+01
5.103673410258091e-06	7.985829e+00	7.183540e+00	1.496600e+01
5.104673410258090e-06	7.985827e+00	7.183552e+00	1.496599e+01
5.105673410258091e-06	7.985825e+00	7.183563e+00	1.496598e+01
5.106673410258091e-06	7.985824e+00	7.183575e+00	1.496598e+01
5.107673410258091e-06	7.985822e+00	7.183582e+00	1.496597e+01
5.108673410258091e-06	7.985820e+00	7.183590e+00	1.496597e+01
5.109673410258090e-06	7.985819e+00	7.183598e+00	1.496597e+01
5.110673410258091e-06	7.985818e+00	7.183601e+00	1.496596e+01
5.111673410258091e-06	7.985817e+00	7.183609e+00	1.496596e+01
5.112673410258091e-06	7.985817e+00	7.183613e+00	1.496596e+01
5.113673410258091e-06	7.985816e+00	7.183617e+00	1.496595e+01
5.114673410258091e-06	7.985815e+00	7.183620e+00	1.496595e+01
5.115673410258091e-06	7.985814e+00	7.183624e+00	1.496595e+01
5.116673410258090e-06	7.985813e+00	7.183628e+00	1.496595e+01
5.117673410258091e-06	7.985813e+00	7.183628e+00	1.496595e+01
5.118673410258091e-06	7.985813e+00	7.183632e+00	1.496595e+01
5.119673410258091e-06	7.985812e+00	7.183632e+00	1.496595e+01
5.120673410258091e-06	7.985813e+00	7.183636e+00	1.496595e+01
5.121673410258090e-06	7.985811e+00	7.183636e+00	1.496594e+01
5.122673410258091e-06	7.985812e+00	7.183640e+00	1.496594e+01
5.123673410258091e-06	7.985812e+00	7.183640e+00	1.496594e+01
5.124673410258091e-06	7.985811e+00	7.183640e+00	1.496594e+01
5.125673410258091e-06	7.985812e+00	7.183643e+00	1.496594e+01
5.126673410258091e-06	7.985811e+00	7.183643e+00	1.496594e+01
5.127673410258091e-06	7.985811e+00	7.183643e+00	1.496594e+01
5.128673410258091e-06	7.985811e+00	7.183643e+00	1.496594e+01
5.129673410258091e-06	7.985810e+00	7.183643e+00	1.496594e+01
5.130673410258091e-06	7.985811e+00	7.183647e+00	1.496594e+01
5.131673410258091e-06	7.985811e+00	7.183647e+00	1.496594e+01
5.132673410258091e-06	7.985811e+00	7.183647e+00	1.496594e+01
5.133673410258090e-06	7.985810e+00	7.183647e+00	1.496594e+01
5.134673410258091e-06	7.985811e+00	7.183647e+00	1.496594e+01
5.135673410258091e-06	7.985811e+00	7.183647e+00	1.496594e+01
5.136673410258091e-06	7.985811e+00	7.183647e+00	1.496594e+01
5.137673410258091e-06	7.985811e+00	7.183647e+00	1.496594e+01
5.138673410258090e-06	7.985810e+00	7.183647e+00	1.496594e+01
5.139673410258091e-06	7.985810e+00	7.183647e+00	1.496594e+01
5.140673410258091e-06	7.985810e+00	7.183651e+00	1.496594e+01
5.141673410258091e-06	7.985810e+00	7.183651e+00	1.496594e+01
5.142673410258091e-06	7.985810e+00	7.183651e+00	1.496594e+01
5.143673410258091e-06	7.985810e+00	7.183651e+00	1.496594e+01
5.144673410258091e-06	7.985810e+00	7.183651e+00	1.496594e+01
5.145673410258091e-06	7.985810e+00	7.183651e+00	1.496594e+01
5.146673410258091e-06	7.985810e+00	7.183651e+00	1.496594e+01
5.147673410258091e-06	7.985810e+00	7.183651e+00	1.496594e+01
5.148673410258091e-06	7.985810e+00	7.183651e+00	1.496594e+01
5.149673410258091e-06	7.985810e+00	7.183651e+00	1.496594e+01
5.150673410258090e-06	7.985810e+00	7.183651e+00	1.496594e+01
5.151673410258091e-06	7.985810e+00	7.183651e+00	1.496594e+01
5.152673410258091e-06	7.985810e+00	7.183651e+00	1.496594e+01
5.153673410258091e-06	7.985811e+00	7.183651e+00	1.496594e+01
5.154673410258091e-06	7.985811e+00	7.183651e+00	1.496594e+01
5.155673410258091e-06	7.985811e+00	7.183651e+00	1.496594e+01
5.156673410258091e-06	7.985811e+00	7.183651e+00	1.496594e+01
5.157673410258091e-06	7.985811e+00	7.183651e+00	1.496594e+01
5.158673410258091e-06	7.985811e+00	7.183651e+00	1.496594e+01
5.159673410258091e-06	7.985811e+00	7.183651e+00	1.496594e+01
5.160673410258091e-06	7.985811e+00	7.183651e+00	1.496594e+01
5.161673410258091e-06	7.985811e+00	7.183651e+00	1.496594e+01
5.162673410258091e-06	7.985811e+00	7.183651e+00	1.496594e+01
5.163673410258091e-06	7.985811e+00	7.183651e+00	1.496594e+01
5.164673410258091e-06	7.985811e+00	7.183651e+00	1.496594e+01
5.165673410258091e-06	7.985811e+00	7.183651e+00	1.496594e+01
5.166673410258091e-06	7.985810e+00	7.183651e+00	1.496594e+01
5.167673410258091e-06	7.985810e+00	7.183651e+00	1.496594e+01
5.168673410258091e-06	7.985810e+00	7.183651e+00	1.496594e+01
5.169673410258091e-06	7.985810e+00	7.183651e+00	1.496594e+01
5.170673410258091e-06	7.985810e+00	7.183651e+00	1.496594e+01
5.171673410258091e-06	7.985810e+00	7.183651e+00	1.496594e+01
5.172673410258091e-06	7.985810e+00	7.183651e+00	1.496594e+01
5.173673410258091e-06	7.985810e+00	7.183651e+00	1.496594e+01
5.174673410258091e-06	7.985811e+00	7.183651e+00	1.496594e+01
5.175673410258091e-06	7.985811e+00	7.183651e+00	1.496594e+01
5.176673410258091e-06	7.985811e+00	7.183651e+00	1.496594e+01
5.177673410258091e-06	7.985811e+00	7.183651e+00	1.496594e+01
5.178673410258091e-06	7.985811e+00	7.183651e+00	1.496594e+01
5.179673410258091e-06	7.985811e+00	7.183651e+00	1.496594e+01
5.180673410258091e-06	7.985811e+00	7.183651e+00	1.496594e+01
5.181673410258091e-06	7.985811e+00	7.183651e+00	1.496594e+01
5.182673410258091e-06	7.985811e+00	7.183651e+00	1.496594e+01
5.183673410258091e-06	7.985811e+00	7.183651e+00	1.496594e+01
5.184673410258091e-06	7.985811e+00	7.183651e+00	1.496594e+01
5.185673410258091e-06	7.985811e+00	7.183651e+00	1.496594e+01
5.186673410258091e-06	7.985810e+00	7.183651e+00	1.496594e+01
5.187673410258091e-06	7.985810e+00	7.183651e+00	1.496594e+01
5.188673410258091e-06	7.985810e+00	7.183651e+00	1.496594e+01
5.189673410258091e-06	7.985810e+00	7.183651e+00	1.496594e+01
5.190673410258091e-06	7.985810e+00	7.183651e+00	1.496594e+01
5.192673410258091e-06	7.985810e+00	7.183651e+00	1.496594e+01
5.194673410258091e-06	7.985810e+00	7.183651e+00	1.496594e+01
5.196673410258091e-06	7.985810e+00	7.183651e+00	1.496594e+01
5.198673410258091e-06	7.985810e+00	7.183651e+00	1.496594e+01
5.200673410258091e-06	7.985810e+00	7.183651e+00	1.496594e+01
5.202673410258091e-06	7.985811e+00	7.183651e+00	1.496594e+01
5.204673410258091e-06	7.985811e+00	7.183651e+00	1.496594e+01
5.206673410258091e-06	7.985811e+00	7.183651e+00	1.496594e+01
5.209673410258091e-06	7.985811e+00	7.183651e+00	1.496594e+01
5.212673410258091e-06	7.985810e+00	7.183651e+00	1.496594e+01
5.213673410258091e-06	7.985810e+00	7.183651e+00	1.496594e+01
5.214673410258091e-06	7.985810e+00	7.183651e+00	1.496594e+01
5.215200000000000e-06	7.985810e+00	7.183651e+00	1.496594e+01
5.216200000000000e-06	7.985813e+00	7.183651e+00	1.496595e+01
5.216300000000000e-06	7.985964e+00	7.183655e+00	1.496640e+01
5.216500000000000e-06	7.986289e+00	7.183666e+00	1.496738e+01
5.216900000000000e-06	7.986936e+00	7.183720e+00	1.496930e+01
5.217700000000000e-06	7.988114e+00	7.183914e+00	1.497281e+01
5.218700000000000e-06	7.989395e+00	7.184280e+00	1.497663e+01
5.219700000000000e-06	7.990456e+00	7.184757e+00	1.497979e+01
5.220700000000000e-06	7.991293e+00	7.185314e+00	1.498228e+01
5.221700000000000e-06	7.991932e+00	7.185909e+00	1.498418e+01
5.222100000000000e-06	7.992126e+00	7.186153e+00	1.498476e+01
5.222300000000000e-06	7.992196e+00	7.186279e+00	1.498497e+01
5.222700000000000e-06	7.992295e+00	7.186523e+00	1.498526e+01
5.223100000000000e-06	7.992363e+00	7.186764e+00	1.498546e+01
5.223140000000000e-06	7.992312e+00	7.186787e+00	1.498531e+01
5.223220000000000e-06	7.992191e+00	7.186832e+00	1.498494e+01
5.223380000000000e-06	7.991922e+00	7.186916e+00	1.498414e+01
5.223700000000000e-06	7.991364e+00	7.187057e+00	1.498247e+01
5.224340000000000e-06	7.990230e+00	7.187248e+00	1.497910e+01
5.225340000000000e-06	7.988383e+00	7.187351e+00	1.497360e+01
5.226340000000000e-06	7.986381e+00	7.187218e+00	1.496764e+01
5.227340000000000e-06	7.984079e+00	7.186821e+00	1.496077e+01
5.228340000000000e-06	7.981221e+00	7.186123e+00	1.495225e+01
5.229339999999999e-06	7.977272e+00	7.185051e+00	1.494048e+01
5.230340000000000e-06	7.970653e+00	7.183388e+00	1.492074e+01
5.231340000000000e-06	7.948189e+00	7.179993e+00	1.485369e+01
5.232340000000000e-06	7.894734e+00	7.173767e+00	1.469406e+01
5.232465000000000e-06	7.880482e+00	7.172356e+00	1.465149e+01
5.232715000000000e-06	7.838193e+00	7.167824e+00	1.452531e+01
5.233214999999999e-06	7.742142e+00	7.153423e+00	1.423910e+01
5.234215000000000e-06	7.477023e+00	7.108215e+00	1.344908e+01
5.234822898102192e-06	7.234475e+00	7.065575e+00	1.272688e+01
5.235266438310659e-06	7.064740e+00	7.022251e+00	1.222306e+01
5.235696769891683e-06	6.922168e+00	6.972633e+00	1.179982e+01
5.235990299336279e-06	6.764793e+00	6.934082e+00	1.133097e+01
5.236273823366223e-06	6.511064e+00	6.888893e+00	1.057571e+01
5.236644608090566e-06	5.976681e+00	6.812038e+00	8.987178e+00
5.237016993641123e-06	5.029739e+00	6.695343e+00	6.183701e+00
5.237568119005608e-06	2.756550e+00	6.429192e+00	-4.990051e-01
5.237933481784775e-06	6.708031e-01	6.187199e+00	-6.588200e+00
5.237945696397755e-06	5.861340e-01	6.177101e+00	-6.833541e+00
5.237970125623714e-06	4.016800e-01	6.154678e+00	-7.365399e+00
5.238018984075631e-06	2.114105e-02	6.108555e+00	-8.460946e+00
5.238046581118185e-06	-1.976929e-01	6.081539e+00	-9.089271e+00
5.238067292059203e-06	-3.621063e-01	6.060387e+00	-9.559831e+00
5.238084393665974e-06	-4.969215e-01	6.042210e+00	-9.944817e+00
5.238102006030677e-06	-6.356430e-01	6.022648e+00	-1.033996e+01
5.238164537673988e-06	-1.122734e+00	5.947380e+00	-1.171893e+01
5.238218677897312e-06	-1.514965e+00	5.876766e+00	-1.281664e+01
5.238226621205339e-06	-1.523373e+00	5.865864e+00	-1.282871e+01
5.238253855404291e-06	-1.524925e+00	5.828491e+00	-1.278618e+01
5.238508041261175e-06	-1.452942e+00	5.492767e+00	-1.213279e+01
5.238798539383327e-06	-1.367027e+00	5.137829e+00	-1.138283e+01
5.239379535627632e-06	-1.207447e+00	4.492287e+00	-9.934365e+00
5.239982405508324e-06	-1.059673e+00	3.899876e+00	-8.502584e+00
5.240524993959800e-06	-9.444504e-01	3.439880e+00	-7.284908e+00
5.241111610797003e-06	-8.373985e-01	3.013176e+00	-6.039044e+00
5.241671916999656e-06	-7.501335e-01	2.665592e+00	-4.910462e+00
5.242260161617970e-06	-6.728859e-01	2.357925e+00	-3.788236e+00
5.242823654731192e-06	-6.110191e-01	2.111786e+00	-2.796426e+00
5.243405459540964e-06	-5.578346e-01	1.901260e+00	-1.918420e+00
5.243971442844313e-06	-5.144081e-01	1.731209e+00	-1.254601e+00
5.244551239730938e-06	-4.765892e-01	1.585220e+00	-7.672547e-01
5.245119781757365e-06	-4.445343e-01	1.463261e+00	-4.417258e-01
5.245697672490459e-06	-4.159584e-01	1.355915e+00	-2.244421e-01
5.246267578389429e-06	-3.909149e-01	1.262760e+00	-8.733504e-02
5.246844117105352e-06	-3.681679e-01	1.178780e+00	-1.097535e-03
5.247415085202892e-06	-3.478165e-01	1.104000e+00	5.013892e-02
5.248032824535098e-06	-3.279533e-01	1.031223e+00	8.075845e-02
5.248809633260625e-06	-3.055916e-01	9.494400e-01	9.853737e-02
5.249745398314140e-06	-2.817688e-01	8.622818e-01	1.042100e-01
5.250745398314139e-06	-2.594872e-01	7.806816e-01	1.007800e-01
5.251745398314140e-06	-2.401047e-01	7.095337e-01	9.301290e-02
5.252745398314139e-06	-2.232513e-01	6.474953e-01	8.387984e-02
5.253745398314139e-06	-2.085724e-01	5.932999e-01	7.476769e-02
5.254745398314140e-06	-1.957741e-01	5.459023e-01	6.624014e-02
5.255745398314139e-06	-1.846046e-01	5.044136e-01	5.849334e-02
5.256745398314140e-06	-1.748428e-01	4.680672e-01	5.156141e-02
5.257745398314139e-06	-1.663094e-01	4.362068e-01	4.540944e-02
5.258745398314139e-06	-1.588402e-01	4.082527e-01	3.997565e-02
5.259745398314139e-06	-1.522942e-01	3.837051e-01	3.519041e-02
5.260745398314139e-06	-1.465569e-01	3.621330e-01	3.098471e-02
5.261745398314140e-06	-1.415176e-01	3.431587e-01	2.729380e-02
5.262745398314139e-06	-1.370811e-01	3.264503e-01	2.405846e-02
5.263745398314139e-06	-1.331749e-01	3.117180e-01	2.122539e-02
