time	V(N008,N012)	V(Vcc_led,Vi_led7)	I(D16)
0.000000000000000e+00	3.433228e-05	0.000000e+00	2.600286e-15
1.020500000000002e-06	3.433228e-05	0.000000e+00	6.170171e-15
2.044500000000005e-06	3.433228e-05	0.000000e+00	4.947155e-15
3.068500000000007e-06	3.433228e-05	0.000000e+00	1.859315e-15
4.092500000000010e-06	3.433228e-05	0.000000e+00	-1.881351e-15
5.010000000000000e-06	3.433228e-05	0.000000e+00	-3.774758e-15
5.010035653355826e-06	3.051758e-05	0.000000e+00	-4.159504e-06
5.010106960067477e-06	2.670288e-05	0.000000e+00	-1.610960e-05
5.010203938121369e-06	1.907349e-05	0.000000e+00	-4.115787e-05
5.010321947209085e-06	3.814697e-06	0.000000e+00	-8.481387e-05
5.010454315782025e-06	-2.288818e-05	0.000000e+00	-1.502736e-04
5.010662764557725e-06	-7.247925e-05	-3.814697e-06	-2.806713e-04
5.010955742085392e-06	-1.678467e-04	-7.629395e-06	-4.994367e-04
5.011373564694756e-06	-3.356934e-04	-2.288818e-05	-8.455317e-04
5.011890379871701e-06	-5.874634e-04	-4.959106e-05	-1.269529e-03
5.012687757039231e-06	-1.018524e-03	-1.029968e-04	-1.822671e-03
5.013687757039231e-06	-1.586914e-03	-1.907349e-04	-2.295490e-03
5.014687757039231e-06	-2.143860e-03	-2.822876e-04	-2.545543e-03
5.015148054874627e-06	-2.395630e-03	-3.280640e-04	-2.587953e-03
5.015542103238364e-06	-2.593994e-03	-3.662109e-04	-2.578447e-03
5.015619740372787e-06	5.001831e-02	-2.098083e-04	1.627602e-01
5.015655622429514e-06	1.867371e-01	2.479553e-04	5.916193e-01
5.015671706271553e-06	3.269806e-01	8.392334e-04	1.029732e+00
5.015687890340919e-06	5.087929e-01	1.934052e-03	1.593215e+00
5.015710671735378e-06	7.563515e-01	4.238129e-03	2.349109e+00
5.015745252749262e-06	1.098816e+00	9.376526e-03	3.367878e+00
5.015814414777029e-06	1.707748e+00	2.410507e-02	5.105777e+00
5.015911925020160e-06	2.440355e+00	5.224609e-02	7.075501e+00
5.016030395898770e-06	3.135513e+00	9.585953e-02	8.784412e+00
5.016200000000000e-06	3.910946e+00	1.673813e-01	1.049946e+01
5.016216960410123e-06	3.963434e+00	1.753960e-01	1.059575e+01
5.016250881230369e-06	4.059616e+00	1.915779e-01	1.076126e+01
5.016318722870860e-06	4.217287e+00	2.244492e-01	1.099287e+01
5.016454406151844e-06	4.455334e+00	2.909622e-01	1.124013e+01
5.016521296728340e-06	4.538532e+00	3.238983e-01	1.126571e+01
5.016523554480875e-06	4.540154e+00	3.250084e-01	1.126313e+01
5.016528069985945e-06	4.542027e+00	3.272247e-01	1.125385e+01
5.016537100996085e-06	4.544930e+00	3.316422e-01	1.123281e+01
5.016553800352679e-06	4.548752e+00	3.397827e-01	1.118959e+01
5.016570340236352e-06	4.551155e+00	3.478012e-01	1.114335e+01
5.016603420003700e-06	4.553894e+00	3.636551e-01	1.104740e+01
5.016668116835754e-06	4.557749e+00	3.940582e-01	1.086480e+01
5.016790112603296e-06	4.565607e+00	4.495811e-01	1.054913e+01
5.016968186647984e-06	4.579561e+00	5.272255e-01	1.014157e+01
5.017164240178990e-06	4.596548e+00	6.085434e-01	9.747258e+00
5.017354833473962e-06	4.615452e+00	6.838455e-01	9.411001e+00
5.017487496765111e-06	4.633415e+00	7.340698e-01	9.213041e+00
5.017626881709779e-06	4.657179e+00	7.850456e-01	9.036598e+00
5.017747049679742e-06	4.678595e+00	8.277359e-01	8.898026e+00
5.017889046157964e-06	4.702991e+00	8.764877e-01	8.744711e+00
5.018145118695571e-06	4.742956e+00	9.607964e-01	8.481367e+00
5.018441637765314e-06	4.777239e+00	1.053577e+00	8.169792e+00
5.018708923869031e-06	4.789398e+00	1.131840e+00	7.860141e+00
5.019033633756301e-06	4.785954e+00	1.220428e+00	7.459908e+00
5.019244883566377e-06	4.780060e+00	1.273834e+00	7.208889e+00
5.019555117875912e-06	4.770933e+00	1.345024e+00	6.880866e+00
5.020142578311100e-06	4.754576e+00	1.464043e+00	6.410183e+00
5.021142578311100e-06	4.728992e+00	1.640038e+00	5.954124e+00
5.022142578311101e-06	4.705769e+00	1.794941e+00	5.770430e+00
5.023142578311100e-06	4.684786e+00	1.934498e+00	5.700129e+00
5.024142578311101e-06	4.665785e+00	2.062496e+00	5.643587e+00
5.025142578311100e-06	4.648584e+00	2.180084e+00	5.591938e+00
5.026142578311100e-06	4.633009e+00	2.288124e+00	5.545284e+00
5.027142578311101e-06	4.618893e+00	2.387409e+00	5.502625e+00
5.028142578311100e-06	4.606083e+00	2.478657e+00	5.463997e+00
5.029142578311101e-06	4.594446e+00	2.562542e+00	5.428906e+00
5.030142578311100e-06	4.583862e+00	2.639679e+00	5.397007e+00
5.031142578311101e-06	4.574228e+00	2.710625e+00	5.367976e+00
5.032142578311101e-06	4.565451e+00	2.775887e+00	5.341528e+00
5.033142578311100e-06	4.557444e+00	2.835930e+00	5.317411e+00
5.034142578311101e-06	4.550133e+00	2.891182e+00	5.295399e+00
5.035142578311100e-06	4.543453e+00	2.942032e+00	5.275291e+00
5.036142578311101e-06	4.537348e+00	2.988838e+00	5.256910e+00
5.037142578311100e-06	4.531759e+00	3.031925e+00	5.240094e+00
5.038142578311100e-06	4.526642e+00	3.071594e+00	5.224701e+00
5.039142578311101e-06	4.521955e+00	3.108120e+00	5.210601e+00
5.040142578311100e-06	4.517662e+00	3.141750e+00	5.197679e+00
5.041142578311101e-06	4.513721e+00	3.172722e+00	5.185830e+00
5.042142578311100e-06	4.510107e+00	3.201248e+00	5.174960e+00
5.043142578311100e-06	4.506788e+00	3.227516e+00	5.164984e+00
5.044142578311101e-06	4.503744e+00	3.251717e+00	5.155825e+00
5.045142578311100e-06	4.500946e+00	3.274006e+00	5.147413e+00
5.046142578311101e-06	4.498373e+00	3.294537e+00	5.139685e+00
5.047142578311100e-06	4.496012e+00	3.313454e+00	5.132582e+00
5.048142578311101e-06	4.493839e+00	3.330879e+00	5.126054e+00
5.049142578311101e-06	4.491842e+00	3.346931e+00	5.120051e+00
5.050142578311100e-06	4.490005e+00	3.361721e+00	5.114530e+00
5.051142578311101e-06	4.488316e+00	3.375351e+00	5.109452e+00
5.052142578311100e-06	4.486761e+00	3.387905e+00	5.104780e+00
5.053142578311101e-06	4.485329e+00	3.399471e+00	5.100481e+00
5.054142578311100e-06	4.484013e+00	3.410130e+00	5.096524e+00
5.055142578311100e-06	4.482800e+00	3.419952e+00	5.092883e+00
5.056142578311101e-06	4.481684e+00	3.429001e+00	5.089530e+00
5.057142578311100e-06	4.480658e+00	3.437340e+00	5.086444e+00
5.058142578311101e-06	4.479713e+00	3.445023e+00	5.083602e+00
5.059142578311100e-06	4.478842e+00	3.452103e+00	5.080986e+00
5.060142578311101e-06	4.478039e+00	3.458630e+00	5.078576e+00
5.061142578311101e-06	4.477299e+00	3.464642e+00	5.076357e+00
5.062142578311100e-06	4.476620e+00	3.470184e+00	5.074313e+00
5.063142578311101e-06	4.475992e+00	3.475288e+00	5.072430e+00
5.064142578311100e-06	4.475414e+00	3.479992e+00	5.070696e+00
5.065142578311101e-06	4.474884e+00	3.484329e+00	5.069098e+00
5.066142578311101e-06	4.474394e+00	3.488323e+00	5.067626e+00
5.067142578311100e-06	4.473944e+00	3.492004e+00	5.066271e+00
5.068142578311101e-06	4.473524e+00	3.495399e+00	5.065022e+00
5.069142578311100e-06	4.473143e+00	3.498524e+00	5.063870e+00
5.070142578311101e-06	4.472792e+00	3.501404e+00	5.062810e+00
5.071142578311100e-06	4.472466e+00	3.504059e+00	5.061833e+00
5.072142578311100e-06	4.472166e+00	3.506508e+00	5.060933e+00
5.073142578311101e-06	4.471889e+00	3.508759e+00	5.060103e+00
5.074142578311100e-06	4.471636e+00	3.510838e+00	5.059340e+00
5.075142578311101e-06	4.471399e+00	3.512753e+00	5.058635e+00
5.076142578311100e-06	4.471186e+00	3.514519e+00	5.057986e+00
5.077142578311101e-06	4.470984e+00	3.516144e+00	5.057388e+00
5.078142578311101e-06	4.470800e+00	3.517647e+00	5.056837e+00
5.079142578311100e-06	4.470633e+00	3.519028e+00	5.056329e+00
5.080142578311101e-06	4.470478e+00	3.520302e+00	5.055861e+00
5.081142578311100e-06	4.470333e+00	3.521473e+00	5.055430e+00
5.082142578311101e-06	4.470200e+00	3.522552e+00	5.055033e+00
5.083142578311101e-06	4.470078e+00	3.523552e+00	5.054667e+00
5.084142578311100e-06	4.469965e+00	3.524467e+00	5.054329e+00
5.085142578311101e-06	4.469864e+00	3.525314e+00	5.054018e+00
5.086142578311100e-06	4.469767e+00	3.526093e+00	5.053731e+00
5.087142578311101e-06	4.469679e+00	3.526810e+00	5.053467e+00
5.088142578311100e-06	4.469599e+00	3.527473e+00	5.053224e+00
5.089142578311101e-06	4.469524e+00	3.528084e+00	5.052999e+00
5.090142578311101e-06	4.469454e+00	3.528648e+00	5.052793e+00
5.091142578311100e-06	4.469391e+00	3.529167e+00	5.052602e+00
5.092142578311101e-06	4.469334e+00	3.529640e+00	5.052426e+00
5.093142578311100e-06	4.469280e+00	3.530083e+00	5.052265e+00
5.094142578311101e-06	4.469229e+00	3.530487e+00	5.052115e+00
5.095142578311101e-06	4.469183e+00	3.530861e+00	5.051978e+00
5.096142578311100e-06	4.469141e+00	3.531208e+00	5.051851e+00
5.097142578311101e-06	4.469103e+00	3.531525e+00	5.051734e+00
5.098142578311100e-06	4.469067e+00	3.531818e+00	5.051627e+00
5.099142578311101e-06	4.469034e+00	3.532089e+00	5.051528e+00
5.100142578311101e-06	4.469004e+00	3.532337e+00	5.051436e+00
5.101142578311100e-06	4.468975e+00	3.532566e+00	5.051353e+00
5.102142578311101e-06	4.468948e+00	3.532776e+00	5.051275e+00
5.103142578311100e-06	4.468925e+00	3.532970e+00	5.051203e+00
5.104142578311101e-06	4.468904e+00	3.533150e+00	5.051137e+00
5.105142578311101e-06	4.468884e+00	3.533314e+00	5.051076e+00
5.106142578311101e-06	4.468863e+00	3.533466e+00	5.051021e+00
5.107142578311101e-06	4.468847e+00	3.533607e+00	5.050969e+00
5.108142578311100e-06	4.468830e+00	3.533733e+00	5.050921e+00
5.109142578311101e-06	4.468817e+00	3.533852e+00	5.050878e+00
5.110142578311100e-06	4.468803e+00	3.533966e+00	5.050838e+00
5.111142578311101e-06	4.468792e+00	3.534065e+00	5.050800e+00
5.112142578311101e-06	4.468781e+00	3.534161e+00	5.050766e+00
5.113142578311100e-06	4.468771e+00	3.534245e+00	5.050734e+00
5.114142578311101e-06	4.468760e+00	3.534325e+00	5.050705e+00
5.115142578311100e-06	4.468752e+00	3.534397e+00	5.050678e+00
5.116142578311101e-06	4.468742e+00	3.534462e+00	5.050653e+00
5.117142578311101e-06	4.468735e+00	3.534527e+00	5.050631e+00
5.118142578311101e-06	4.468727e+00	3.534584e+00	5.050610e+00
5.119142578311101e-06	4.468721e+00	3.534637e+00	5.050591e+00
5.120142578311100e-06	4.468714e+00	3.534683e+00	5.050572e+00
5.121142578311101e-06	4.468708e+00	3.534729e+00	5.050556e+00
5.122142578311101e-06	4.468704e+00	3.534771e+00	5.050541e+00
5.123142578311101e-06	4.468700e+00	3.534809e+00	5.050527e+00
5.124142578311101e-06	4.468697e+00	3.534843e+00	5.050514e+00
5.125142578311100e-06	4.468693e+00	3.534874e+00	5.050502e+00
5.126142578311101e-06	4.468687e+00	3.534904e+00	5.050491e+00
5.127142578311100e-06	4.468683e+00	3.534931e+00	5.050481e+00
5.128142578311101e-06	4.468681e+00	3.534958e+00	5.050472e+00
5.129142578311101e-06	4.468679e+00	3.534981e+00	5.050463e+00
5.130142578311101e-06	4.468676e+00	3.535004e+00	5.050455e+00
5.131142578311101e-06	4.468674e+00	3.535023e+00	5.050448e+00
5.132142578311100e-06	4.468672e+00	3.535042e+00	5.050441e+00
5.133142578311101e-06	4.468670e+00	3.535057e+00	5.050435e+00
5.134142578311101e-06	4.468668e+00	3.535072e+00	5.050429e+00
5.135142578311101e-06	4.468666e+00	3.535088e+00	5.050424e+00
5.136142578311101e-06	4.468664e+00	3.535099e+00	5.050419e+00
5.137142578311100e-06	4.468662e+00	3.535110e+00	5.050415e+00
5.138142578311101e-06	4.468662e+00	3.535122e+00	5.050411e+00
5.139142578311101e-06	4.468660e+00	3.535133e+00	5.050407e+00
5.140142578311101e-06	4.468660e+00	3.535145e+00	5.050404e+00
5.141142578311101e-06	4.468658e+00	3.535152e+00	5.050400e+00
5.142142578311100e-06	4.468658e+00	3.535160e+00	5.050397e+00
5.143142578311101e-06	4.468658e+00	3.535168e+00	5.050395e+00
5.144142578311100e-06	4.468657e+00	3.535175e+00	5.050392e+00
5.145142578311101e-06	4.468657e+00	3.535179e+00	5.050390e+00
5.146142578311101e-06	4.468655e+00	3.535187e+00	5.050388e+00
5.147142578311101e-06	4.468655e+00	3.535191e+00	5.050385e+00
5.148142578311101e-06	4.468653e+00	3.535194e+00	5.050384e+00
5.149142578311100e-06	4.468651e+00	3.535202e+00	5.050383e+00
5.150142578311101e-06	4.468653e+00	3.535206e+00	5.050381e+00
5.151142578311101e-06	4.468651e+00	3.535210e+00	5.050380e+00
5.152142578311101e-06	4.468653e+00	3.535213e+00	5.050378e+00
5.153142578311101e-06	4.468651e+00	3.535217e+00	5.050377e+00
5.154142578311100e-06	4.468649e+00	3.535217e+00	5.050376e+00
5.155142578311101e-06	4.468651e+00	3.535221e+00	5.050375e+00
5.156142578311101e-06	4.468649e+00	3.535225e+00	5.050374e+00
5.157142578311101e-06	4.468649e+00	3.535225e+00	5.050373e+00
5.158142578311101e-06	4.468651e+00	3.535229e+00	5.050372e+00
5.159142578311101e-06	4.468647e+00	3.535229e+00	5.050371e+00
5.160142578311101e-06	4.468649e+00	3.535233e+00	5.050371e+00
5.161142578311100e-06	4.468647e+00	3.535233e+00	5.050370e+00
5.162142578311101e-06	4.468649e+00	3.535236e+00	5.050369e+00
5.163142578311101e-06	4.468647e+00	3.535236e+00	5.050369e+00
5.164142578311101e-06	4.468647e+00	3.535240e+00	5.050368e+00
5.165142578311101e-06	4.468647e+00	3.535240e+00	5.050368e+00
5.166142578311100e-06	4.468649e+00	3.535240e+00	5.050368e+00
5.167142578311101e-06	4.468647e+00	3.535240e+00	5.050367e+00
5.168142578311101e-06	4.468649e+00	3.535244e+00	5.050367e+00
5.169142578311101e-06	4.468647e+00	3.535244e+00	5.050366e+00
5.170142578311101e-06	4.468647e+00	3.535244e+00	5.050366e+00
5.171142578311100e-06	4.468647e+00	3.535244e+00	5.050366e+00
5.172142578311101e-06	4.468647e+00	3.535244e+00	5.050365e+00
5.173142578311101e-06	4.468645e+00	3.535248e+00	5.050365e+00
5.174142578311101e-06	4.468647e+00	3.535248e+00	5.050365e+00
5.175142578311101e-06	4.468647e+00	3.535248e+00	5.050365e+00
5.176142578311101e-06	4.468647e+00	3.535248e+00	5.050365e+00
5.177142578311101e-06	4.468645e+00	3.535248e+00	5.050365e+00
5.178142578311100e-06	4.468645e+00	3.535248e+00	5.050364e+00
5.179142578311101e-06	4.468645e+00	3.535248e+00	5.050364e+00
5.180142578311101e-06	4.468645e+00	3.535248e+00	5.050364e+00
5.181142578311101e-06	4.468645e+00	3.535252e+00	5.050364e+00
5.182142578311101e-06	4.468647e+00	3.535252e+00	5.050364e+00
5.183142578311100e-06	4.468647e+00	3.535252e+00	5.050364e+00
5.184142578311101e-06	4.468647e+00	3.535252e+00	5.050364e+00
5.185142578311101e-06	4.468647e+00	3.535252e+00	5.050364e+00
5.186142578311101e-06	4.468647e+00	3.535252e+00	5.050364e+00
5.187142578311101e-06	4.468647e+00	3.535252e+00	5.050364e+00
5.188142578311101e-06	4.468647e+00	3.535252e+00	5.050364e+00
5.189142578311101e-06	4.468647e+00	3.535252e+00	5.050364e+00
5.190142578311101e-06	4.468647e+00	3.535252e+00	5.050364e+00
5.191142578311101e-06	4.468647e+00	3.535252e+00	5.050364e+00
5.192142578311101e-06	4.468647e+00	3.535252e+00	5.050364e+00
5.193142578311101e-06	4.468647e+00	3.535252e+00	5.050364e+00
5.194142578311101e-06	4.468647e+00	3.535252e+00	5.050364e+00
5.195142578311100e-06	4.468647e+00	3.535252e+00	5.050363e+00
5.196142578311101e-06	4.468647e+00	3.535252e+00	5.050363e+00
5.197142578311101e-06	4.468647e+00	3.535252e+00	5.050363e+00
5.198142578311101e-06	4.468647e+00	3.535252e+00	5.050363e+00
5.199142578311101e-06	4.468647e+00	3.535252e+00	5.050363e+00
5.200142578311100e-06	4.468647e+00	3.535252e+00	5.050363e+00
5.201142578311101e-06	4.468647e+00	3.535252e+00	5.050363e+00
5.203142578311101e-06	4.468647e+00	3.535252e+00	5.050363e+00
5.205142578311101e-06	4.468645e+00	3.535252e+00	5.050363e+00
5.207142578311101e-06	4.468645e+00	3.535252e+00	5.050363e+00
5.209142578311101e-06	4.468645e+00	3.535252e+00	5.050363e+00
5.211142578311101e-06	4.468645e+00	3.535255e+00	5.050363e+00
5.213142578311101e-06	4.468645e+00	3.535255e+00	5.050363e+00
5.214142578311101e-06	4.468645e+00	3.535255e+00	5.050363e+00
5.215142578311101e-06	4.468645e+00	3.535255e+00	5.050363e+00
5.215200000000000e-06	4.468645e+00	3.535255e+00	5.050363e+00
5.215314843377798e-06	4.468645e+00	3.535255e+00	5.050363e+00
5.215544530133395e-06	4.468645e+00	3.535255e+00	5.050363e+00
5.215740626488807e-06	4.468645e+00	3.535255e+00	5.050363e+00
5.215807807289175e-06	4.468645e+00	3.535255e+00	5.050363e+00
5.215942168889911e-06	4.468645e+00	3.535255e+00	5.050363e+00
5.216200000000000e-06	4.468647e+00	3.535255e+00	5.050365e+00
5.216225783111009e-06	4.468660e+00	3.535255e+00	5.050414e+00
5.216277349333026e-06	4.468700e+00	3.535255e+00	5.050531e+00
5.216380481777062e-06	4.468784e+00	3.535255e+00	5.050799e+00
5.216586746665134e-06	4.468962e+00	3.535263e+00	5.051343e+00
5.216999276441278e-06	4.469299e+00	3.535297e+00	5.052371e+00
5.217824335993563e-06	4.469915e+00	3.535416e+00	5.054236e+00
5.218824335993563e-06	4.470581e+00	3.535622e+00	5.056230e+00
5.219824335993563e-06	4.471148e+00	3.535896e+00	5.057927e+00
5.220824335993564e-06	4.471613e+00	3.536221e+00	5.059316e+00
5.221824335993563e-06	4.471991e+00	3.536572e+00	5.060447e+00
5.222100000000000e-06	4.472075e+00	3.536674e+00	5.060696e+00
5.222548671987127e-06	4.472176e+00	3.536846e+00	5.061005e+00
5.223100000000000e-06	4.472281e+00	3.537056e+00	5.061315e+00
5.223155132801287e-06	4.472248e+00	3.537079e+00	5.061212e+00
5.223265398403862e-06	4.472174e+00	3.537117e+00	5.060972e+00
5.223485929609012e-06	4.472004e+00	3.537189e+00	5.060450e+00
5.223926992019310e-06	4.471657e+00	3.537315e+00	5.059389e+00
5.224809116839908e-06	4.470947e+00	3.537495e+00	5.057240e+00
5.225809116839907e-06	4.470097e+00	3.537598e+00	5.054677e+00
5.226809116839908e-06	4.469162e+00	3.537575e+00	5.051854e+00
5.227809116839907e-06	4.468073e+00	3.537422e+00	5.048571e+00
5.228809116839907e-06	4.466717e+00	3.537117e+00	5.044470e+00
5.229809116839908e-06	4.464840e+00	3.536613e+00	5.038785e+00
5.230809116839907e-06	4.461699e+00	3.535809e+00	5.029251e+00
5.231809116839908e-06	4.451021e+00	3.534122e+00	4.996588e+00
5.232809116839907e-06	4.425489e+00	3.531010e+00	4.918269e+00
5.232934116839908e-06	4.418566e+00	3.530296e+00	4.897004e+00
5.233184116839907e-06	4.397806e+00	3.528000e+00	4.833465e+00
5.233684116839908e-06	4.350418e+00	3.520622e+00	4.689616e+00
5.234684116839907e-06	4.219944e+00	3.497314e+00	4.294056e+00
5.235292819387058e-06	4.100237e+00	3.475216e+00	3.931542e+00
5.235736424296448e-06	4.017479e+00	3.452755e+00	3.685164e+00
5.236164664889139e-06	3.955469e+00	3.427345e+00	3.503719e+00
5.236431047527175e-06	3.897989e+00	3.409752e+00	3.331012e+00
5.236693884589911e-06	3.808731e+00	3.389633e+00	3.060311e+00
5.237035125845135e-06	3.632133e+00	3.357830e+00	2.524260e+00
5.237372051516560e-06	3.319510e+00	3.312962e+00	1.578219e+00
5.237954290729246e-06	2.319586e+00	3.184677e+00	-1.413227e+00
5.238578060683013e-06	7.025032e-01	2.983929e+00	-6.207764e+00
5.238607774100139e-06	5.990562e-01	2.971058e+00	-6.511569e+00
5.238667200934391e-06	3.563042e-01	2.940742e+00	-7.220400e+00
5.238720750106560e-06	1.274643e-01	2.912197e+00	-7.887195e+00
5.238760916115517e-06	-4.989243e-02	2.889668e+00	-8.402142e+00
5.238788335747963e-06	-1.719246e-01	2.873383e+00	-8.754789e+00
5.238807061089501e-06	-2.549782e-01	2.861576e+00	-8.993878e+00
5.238833060276354e-06	-3.690987e-01	2.844074e+00	-9.321274e+00
5.238837353107767e-06	-3.771477e-01	2.841045e+00	-9.340811e+00
5.238843076882983e-06	-3.821678e-01	2.836990e+00	-9.348904e+00
5.238854524433416e-06	-3.885155e-01	2.828865e+00	-9.353124e+00
5.238877419534283e-06	-3.945694e-01	2.812599e+00	-9.340489e+00
5.238923209736015e-06	-3.956566e-01	2.780243e+00	-9.280220e+00
5.239014790139482e-06	-3.898621e-01	2.716560e+00	-9.135014e+00
5.239187284076019e-06	-3.766556e-01	2.600700e+00	-8.856270e+00
5.239532271949094e-06	-3.499413e-01	2.383965e+00	-8.304338e+00
5.240149196551760e-06	-3.053093e-01	2.033813e+00	-7.343220e+00
5.240801696277328e-06	-2.633400e-01	1.709553e+00	-6.364904e+00
5.241399178053448e-06	-2.301865e-01	1.455406e+00	-5.509410e+00
5.241948625129885e-06	-2.041512e-01	1.256748e+00	-4.760815e+00
5.242512613553466e-06	-1.814537e-01	1.084324e+00	-4.032562e+00
5.243084766638442e-06	-1.621056e-01	9.380379e-01	-3.337753e+00
5.243665480503845e-06	-1.458588e-01	8.159523e-01	-2.682785e+00
5.244238161165178e-06	-1.328011e-01	7.187233e-01	-2.094369e+00
5.244812408158971e-06	-1.222725e-01	6.413994e-01	-1.575730e+00
5.245383763817896e-06	-1.138916e-01	5.812340e-01	-1.147285e+00
5.245958589337637e-06	-1.071320e-01	5.342407e-01	-8.108629e-01
5.246531367463599e-06	-1.016769e-01	4.978104e-01	-5.614457e-01
5.247105825840017e-06	-9.718323e-02	4.691010e-01	-3.813843e-01
