time	V(N024,N026)	V(Vcc_led,Vi_led7)	I(D9)
0.000000000000000e+00	3.433228e-05	0.000000e+00	-3.845339e-15
1.020500000000002e-06	3.433228e-05	0.000000e+00	9.508673e-15
2.044500000000005e-06	3.433228e-05	0.000000e+00	5.583454e-15
3.068500000000007e-06	3.433228e-05	0.000000e+00	1.875842e-15
4.092500000000010e-06	3.433228e-05	0.000000e+00	4.803919e-15
5.010000000000000e-06	3.433228e-05	0.000000e+00	7.216450e-15
5.010031607025008e-06	3.814697e-05	0.000000e+00	-3.966592e-06
5.010094821075025e-06	3.433228e-05	0.000000e+00	-1.535082e-05
5.010190202576312e-06	2.288818e-05	0.000000e+00	-4.179838e-05
5.010300151039246e-06	7.629395e-06	0.000000e+00	-8.559682e-05
5.010426053442846e-06	-1.525879e-05	0.000000e+00	-1.529670e-04
5.010619469973365e-06	-6.866455e-05	-3.814697e-06	-2.843528e-04
5.010895527475381e-06	-1.640320e-04	-7.629395e-06	-5.097239e-04
5.011281898785334e-06	-3.356934e-04	-2.288818e-05	-8.633685e-04
5.011837896183841e-06	-6.294250e-04	-4.959106e-05	-1.378276e-03
5.012523066746809e-06	-1.037598e-03	-9.918213e-05	-1.928726e-03
5.013523066746809e-06	-1.674652e-03	-1.907349e-04	-2.501060e-03
5.014523066746809e-06	-2.304077e-03	-2.899170e-04	-2.820579e-03
5.015200000000000e-06	-2.712250e-03	-3.585815e-04	-2.898877e-03
5.015601336498568e-06	5.396652e-01	6.217957e-03	1.635033e+00
5.015774881983028e-06	1.565224e+00	2.656937e-02	4.630267e+00
5.015932282746105e-06	2.907827e+00	7.035828e-02	8.351199e+00
5.016044334114315e-06	3.657492e+00	1.163979e-01	1.022158e+01
5.016200000000000e-06	4.469236e+00	1.913795e-01	1.205527e+01
5.016215566588569e-06	4.518456e+00	1.997147e-01	1.214040e+01
5.016246699765706e-06	4.612438e+00	2.165184e-01	1.229960e+01
5.016308966119980e-06	4.776795e+00	2.505989e-01	1.255431e+01
5.016433498828528e-06	5.044632e+00	3.195915e-01	1.289666e+01
5.016497393757417e-06	5.143065e+00	3.551788e-01	1.296191e+01
5.016544155944428e-06	5.184231e+00	3.812065e-01	1.291943e+01
5.016549444147299e-06	5.186349e+00	3.841324e-01	1.290707e+01
5.016560020553039e-06	5.188108e+00	3.899460e-01	1.287520e+01
5.016581173364520e-06	5.190551e+00	4.015121e-01	1.280919e+01
5.016614495249785e-06	5.192941e+00	4.195518e-01	1.270339e+01
5.016660149865664e-06	5.195380e+00	4.438515e-01	1.256191e+01
5.016751459097422e-06	5.200982e+00	4.910240e-01	1.230057e+01
5.016934077560937e-06	5.215275e+00	5.815430e-01	1.183442e+01
5.017123557065361e-06	5.232260e+00	6.707840e-01	1.140809e+01
5.017315870402995e-06	5.251512e+00	7.567215e-01	1.102657e+01
5.017445774234840e-06	5.269080e+00	8.119888e-01	1.080717e+01
5.017630509647291e-06	5.302234e+00	8.873825e-01	1.054657e+01
5.017754696292672e-06	5.326632e+00	9.363174e-01	1.039102e+01
5.017897543285533e-06	5.353877e+00	9.902573e-01	1.022561e+01
5.018183237271254e-06	5.402307e+00	1.092846e+00	9.908678e+00
5.018510876915272e-06	5.440987e+00	1.203503e+00	9.531770e+00
5.018785264354163e-06	5.450665e+00	1.289188e+00	9.182578e+00
5.019099199909720e-06	5.443602e+00	1.379391e+00	8.772596e+00
5.019344682146685e-06	5.434972e+00	1.444313e+00	8.489623e+00
5.019641788074810e-06	5.424340e+00	1.515961e+00	8.242994e+00
5.020235999931059e-06	5.403445e+00	1.646599e+00	7.971354e+00
5.020983560007557e-06	5.378628e+00	1.795967e+00	7.821947e+00
5.021983560007556e-06	5.348220e+00	1.976379e+00	7.723196e+00
5.022983560007557e-06	5.320976e+00	2.138504e+00	7.640370e+00
5.023983560007557e-06	5.296858e+00	2.283123e+00	7.566387e+00
5.024983560007557e-06	5.275535e+00	2.412140e+00	7.501242e+00
5.025983560007557e-06	5.256687e+00	2.527271e+00	7.443605e+00
5.026983560007557e-06	5.240024e+00	2.630032e+00	7.392677e+00
5.027983560007557e-06	5.225285e+00	2.721771e+00	7.347637e+00
5.028983560007557e-06	5.212242e+00	2.803688e+00	7.307791e+00
5.029983560007557e-06	5.200693e+00	2.876850e+00	7.272516e+00
5.030983560007557e-06	5.190461e+00	2.942204e+00	7.241272e+00
5.031983560007557e-06	5.181391e+00	3.000595e+00	7.213581e+00
5.032983560007557e-06	5.173348e+00	3.052769e+00	7.189025e+00
5.033983560007556e-06	5.166210e+00	3.099403e+00	7.167239e+00
5.034983560007557e-06	5.159873e+00	3.141087e+00	7.147898e+00
5.035983560007557e-06	5.154244e+00	3.178352e+00	7.130721e+00
5.036983560007557e-06	5.149243e+00	3.211674e+00	7.115458e+00
5.037983560007557e-06	5.144796e+00	3.241467e+00	7.101891e+00
5.038983560007556e-06	5.140841e+00	3.268112e+00	7.089824e+00
5.039983560007557e-06	5.137322e+00	3.291950e+00	7.079089e+00
5.040983560007557e-06	5.134190e+00	3.313271e+00	7.069534e+00
5.041983560007557e-06	5.131402e+00	3.332348e+00	7.061027e+00
5.042983560007557e-06	5.128917e+00	3.349415e+00	7.053450e+00
5.043983560007557e-06	5.126704e+00	3.364685e+00	7.046700e+00
5.044983560007557e-06	5.124732e+00	3.378349e+00	7.040684e+00
5.045983560007557e-06	5.122974e+00	3.390579e+00	7.035322e+00
5.046983560007557e-06	5.121407e+00	3.401527e+00	7.030540e+00
5.047983560007557e-06	5.120008e+00	3.411324e+00	7.026276e+00
5.048983560007557e-06	5.118760e+00	3.420094e+00	7.022471e+00
5.049983560007557e-06	5.117646e+00	3.427944e+00	7.019076e+00
5.050983560007556e-06	5.116653e+00	3.434975e+00	7.016047e+00
5.051983560007557e-06	5.115767e+00	3.441269e+00	7.013343e+00
5.052983560007557e-06	5.114975e+00	3.446903e+00	7.010928e+00
5.053983560007557e-06	5.114268e+00	3.451946e+00	7.008773e+00
5.054983560007557e-06	5.113637e+00	3.456467e+00	7.006847e+00
5.055983560007557e-06	5.113073e+00	3.460510e+00	7.005128e+00
5.056983560007557e-06	5.112569e+00	3.464134e+00	7.003592e+00
5.057983560007557e-06	5.112119e+00	3.467381e+00	7.002220e+00
5.058983560007557e-06	5.111717e+00	3.470284e+00	7.000994e+00
5.059983560007557e-06	5.111358e+00	3.472889e+00	6.999898e+00
5.060983560007557e-06	5.111037e+00	3.475220e+00	6.998919e+00
5.061983560007557e-06	5.110749e+00	3.477310e+00	6.998043e+00
5.062983560007557e-06	5.110492e+00	3.479179e+00	6.997261e+00
5.063983560007557e-06	5.110263e+00	3.480858e+00	6.996562e+00
5.064983560007557e-06	5.110059e+00	3.482357e+00	6.995936e+00
5.065983560007557e-06	5.109875e+00	3.483704e+00	6.995378e+00
5.066983560007557e-06	5.109712e+00	3.484909e+00	6.994878e+00
5.067983560007557e-06	5.109565e+00	3.485989e+00	6.994431e+00
5.068983560007557e-06	5.109434e+00	3.486954e+00	6.994031e+00
5.069983560007557e-06	5.109316e+00	3.487823e+00	6.993674e+00
5.070983560007557e-06	5.109212e+00	3.488602e+00	6.993355e+00
5.071983560007557e-06	5.109118e+00	3.489296e+00	6.993069e+00
5.072983560007557e-06	5.109034e+00	3.489922e+00	6.992813e+00
5.073983560007557e-06	5.108959e+00	3.490479e+00	6.992585e+00
5.074983560007557e-06	5.108892e+00	3.490982e+00	6.992380e+00
5.075983560007557e-06	5.108832e+00	3.491428e+00	6.992198e+00
5.076983560007557e-06	5.108778e+00	3.491829e+00	6.992034e+00
5.077983560007557e-06	5.108730e+00	3.492191e+00	6.991888e+00
5.078983560007557e-06	5.108687e+00	3.492516e+00	6.991757e+00
5.079983560007557e-06	5.108650e+00	3.492805e+00	6.991640e+00
5.080983560007557e-06	5.108615e+00	3.493065e+00	6.991535e+00
5.081983560007557e-06	5.108584e+00	3.493298e+00	6.991442e+00
5.082983560007557e-06	5.108557e+00	3.493507e+00	6.991358e+00
5.083983560007557e-06	5.108532e+00	3.493694e+00	6.991283e+00
5.084983560007557e-06	5.108510e+00	3.493862e+00	6.991216e+00
5.085983560007557e-06	5.108490e+00	3.494011e+00	6.991156e+00
5.086983560007557e-06	5.108473e+00	3.494148e+00	6.991102e+00
5.087983560007557e-06	5.108457e+00	3.494270e+00	6.991055e+00
5.088983560007557e-06	5.108443e+00	3.494377e+00	6.991012e+00
5.089983560007557e-06	5.108430e+00	3.494476e+00	6.990973e+00
5.090983560007557e-06	5.108419e+00	3.494560e+00	6.990939e+00
5.091983560007557e-06	5.108409e+00	3.494640e+00	6.990908e+00
5.092983560007557e-06	5.108400e+00	3.494709e+00	6.990880e+00
5.093983560007557e-06	5.108393e+00	3.494774e+00	6.990856e+00
5.094983560007557e-06	5.108385e+00	3.494827e+00	6.990834e+00
5.095983560007557e-06	5.108378e+00	3.494881e+00	6.990814e+00
5.096983560007557e-06	5.108372e+00	3.494926e+00	6.990797e+00
5.097983560007557e-06	5.108368e+00	3.494965e+00	6.990781e+00
5.098983560007557e-06	5.108363e+00	3.495003e+00	6.990767e+00
5.099983560007557e-06	5.108359e+00	3.495037e+00	6.990754e+00
5.100983560007557e-06	5.108355e+00	3.495064e+00	6.990743e+00
5.101983560007557e-06	5.108352e+00	3.495090e+00	6.990733e+00
5.102983560007557e-06	5.108348e+00	3.495117e+00	6.990724e+00
5.103983560007557e-06	5.108346e+00	3.495136e+00	6.990716e+00
5.104983560007557e-06	5.108343e+00	3.495155e+00	6.990708e+00
5.105983560007557e-06	5.108342e+00	3.495174e+00	6.990702e+00
5.106983560007557e-06	5.108340e+00	3.495190e+00	6.990696e+00
5.107983560007557e-06	5.108338e+00	3.495201e+00	6.990691e+00
5.108983560007557e-06	5.108337e+00	3.495216e+00	6.990686e+00
5.109983560007557e-06	5.108335e+00	3.495224e+00	6.990683e+00
5.110983560007557e-06	5.108334e+00	3.495235e+00	6.990679e+00
5.111983560007557e-06	5.108333e+00	3.495243e+00	6.990675e+00
5.112983560007557e-06	5.108333e+00	3.495255e+00	6.990673e+00
5.113983560007557e-06	5.108332e+00	3.495258e+00	6.990670e+00
5.114983560007557e-06	5.108330e+00	3.495266e+00	6.990667e+00
5.115983560007557e-06	5.108330e+00	3.495274e+00	6.990665e+00
5.116983560007557e-06	5.108329e+00	3.495277e+00	6.990664e+00
5.117983560007557e-06	5.108328e+00	3.495281e+00	6.990662e+00
5.118983560007557e-06	5.108328e+00	3.495285e+00	6.990661e+00
5.119983560007557e-06	5.108328e+00	3.495289e+00	6.990659e+00
5.120983560007557e-06	5.108327e+00	3.495293e+00	6.990658e+00
5.121983560007557e-06	5.108327e+00	3.495296e+00	6.990657e+00
5.122983560007557e-06	5.108326e+00	3.495300e+00	6.990656e+00
5.123983560007557e-06	5.108327e+00	3.495300e+00	6.990655e+00
5.124983560007557e-06	5.108325e+00	3.495304e+00	6.990654e+00
5.125983560007557e-06	5.108326e+00	3.495304e+00	6.990654e+00
5.126983560007557e-06	5.108326e+00	3.495308e+00	6.990653e+00
5.127983560007557e-06	5.108325e+00	3.495308e+00	6.990652e+00
5.128983560007557e-06	5.108326e+00	3.495312e+00	6.990652e+00
5.129983560007557e-06	5.108325e+00	3.495312e+00	6.990651e+00
5.130983560007557e-06	5.108326e+00	3.495312e+00	6.990651e+00
5.131983560007557e-06	5.108325e+00	3.495316e+00	6.990651e+00
5.132983560007557e-06	5.108325e+00	3.495316e+00	6.990650e+00
5.133983560007557e-06	5.108325e+00	3.495316e+00	6.990650e+00
5.134983560007557e-06	5.108325e+00	3.495316e+00	6.990650e+00
5.135983560007557e-06	5.108325e+00	3.495319e+00	6.990650e+00
5.136983560007557e-06	5.108325e+00	3.495319e+00	6.990649e+00
5.137983560007557e-06	5.108325e+00	3.495319e+00	6.990649e+00
5.138983560007557e-06	5.108324e+00	3.495319e+00	6.990649e+00
5.139983560007557e-06	5.108325e+00	3.495319e+00	6.990649e+00
5.140983560007557e-06	5.108325e+00	3.495319e+00	6.990649e+00
5.141983560007557e-06	5.108325e+00	3.495319e+00	6.990649e+00
5.142983560007557e-06	5.108324e+00	3.495319e+00	6.990649e+00
5.143983560007557e-06	5.108324e+00	3.495319e+00	6.990648e+00
5.144983560007557e-06	5.108324e+00	3.495323e+00	6.990648e+00
5.145983560007557e-06	5.108324e+00	3.495323e+00	6.990648e+00
5.146983560007557e-06	5.108324e+00	3.495323e+00	6.990648e+00
5.147983560007557e-06	5.108324e+00	3.495323e+00	6.990648e+00
5.148983560007557e-06	5.108324e+00	3.495323e+00	6.990648e+00
5.149983560007557e-06	5.108325e+00	3.495323e+00	6.990648e+00
5.150983560007557e-06	5.108325e+00	3.495323e+00	6.990648e+00
5.151983560007557e-06	5.108325e+00	3.495323e+00	6.990648e+00
5.152983560007557e-06	5.108325e+00	3.495323e+00	6.990648e+00
5.153983560007557e-06	5.108324e+00	3.495323e+00	6.990648e+00
5.154983560007558e-06	5.108324e+00	3.495323e+00	6.990648e+00
5.155983560007557e-06	5.108324e+00	3.495323e+00	6.990648e+00
5.156983560007557e-06	5.108324e+00	3.495323e+00	6.990648e+00
5.157983560007557e-06	5.108324e+00	3.495323e+00	6.990648e+00
5.158983560007557e-06	5.108324e+00	3.495323e+00	6.990648e+00
5.159983560007557e-06	5.108324e+00	3.495323e+00	6.990648e+00
5.160983560007557e-06	5.108324e+00	3.495323e+00	6.990648e+00
5.161983560007557e-06	5.108324e+00	3.495323e+00	6.990648e+00
5.162983560007557e-06	5.108324e+00	3.495323e+00	6.990648e+00
5.163983560007557e-06	5.108324e+00	3.495323e+00	6.990648e+00
5.164983560007557e-06	5.108324e+00	3.495323e+00	6.990648e+00
5.165983560007557e-06	5.108325e+00	3.495323e+00	6.990648e+00
5.166983560007557e-06	5.108325e+00	3.495323e+00	6.990648e+00
5.167983560007557e-06	5.108324e+00	3.495323e+00	6.990648e+00
5.168983560007557e-06	5.108324e+00	3.495323e+00	6.990648e+00
5.169983560007557e-06	5.108324e+00	3.495323e+00	6.990648e+00
5.170983560007557e-06	5.108324e+00	3.495323e+00	6.990648e+00
5.171983560007558e-06	5.108324e+00	3.495323e+00	6.990648e+00
5.172983560007557e-06	5.108324e+00	3.495323e+00	6.990648e+00
5.173983560007557e-06	5.108324e+00	3.495323e+00	6.990648e+00
5.174983560007557e-06	5.108324e+00	3.495323e+00	6.990648e+00
5.175983560007557e-06	5.108324e+00	3.495323e+00	6.990648e+00
5.176983560007557e-06	5.108324e+00	3.495323e+00	6.990648e+00
5.177983560007557e-06	5.108324e+00	3.495323e+00	6.990648e+00
5.178983560007557e-06	5.108324e+00	3.495323e+00	6.990648e+00
5.179983560007557e-06	5.108324e+00	3.495323e+00	6.990648e+00
5.180983560007557e-06	5.108324e+00	3.495323e+00	6.990648e+00
5.181983560007557e-06	5.108324e+00	3.495323e+00	6.990648e+00
5.182983560007557e-06	5.108324e+00	3.495323e+00	6.990648e+00
5.183983560007558e-06	5.108324e+00	3.495323e+00	6.990648e+00
5.184983560007557e-06	5.108324e+00	3.495323e+00	6.990648e+00
5.185983560007557e-06	5.108324e+00	3.495323e+00	6.990648e+00
5.186983560007557e-06	5.108324e+00	3.495323e+00	6.990648e+00
5.187983560007557e-06	5.108324e+00	3.495323e+00	6.990648e+00
5.188983560007558e-06	5.108323e+00	3.495323e+00	6.990648e+00
5.189983560007557e-06	5.108323e+00	3.495323e+00	6.990648e+00
5.190983560007557e-06	5.108323e+00	3.495323e+00	6.990648e+00
5.192983560007557e-06	5.108324e+00	3.495323e+00	6.990648e+00
5.194983560007557e-06	5.108324e+00	3.495323e+00	6.990648e+00
5.196983560007557e-06	5.108324e+00	3.495323e+00	6.990648e+00
5.198983560007557e-06	5.108324e+00	3.495323e+00	6.990648e+00
5.200983560007558e-06	5.108324e+00	3.495323e+00	6.990648e+00
5.202983560007557e-06	5.108324e+00	3.495323e+00	6.990648e+00
5.204983560007557e-06	5.108324e+00	3.495323e+00	6.990648e+00
5.206983560007557e-06	5.108324e+00	3.495323e+00	6.990648e+00
5.209983560007557e-06	5.108324e+00	3.495323e+00	6.990648e+00
5.212983560007558e-06	5.108323e+00	3.495323e+00	6.990648e+00
5.213983560007557e-06	5.108323e+00	3.495323e+00	6.990648e+00
5.214983560007557e-06	5.108324e+00	3.495323e+00	6.990648e+00
5.215200000000000e-06	5.108324e+00	3.495323e+00	6.990648e+00
5.215632879984886e-06	5.108324e+00	3.495323e+00	6.990648e+00
5.216200000000000e-06	5.108326e+00	3.495323e+00	6.990654e+00
5.216256712001511e-06	5.108371e+00	3.495323e+00	6.990796e+00
5.216370136004534e-06	5.108475e+00	3.495327e+00	6.991118e+00
5.216596984010581e-06	5.108694e+00	3.495338e+00	6.991797e+00
5.217050680022672e-06	5.109113e+00	3.495380e+00	6.993086e+00
5.217958072046855e-06	5.109877e+00	3.495533e+00	6.995418e+00
5.218958072046855e-06	5.110616e+00	3.495773e+00	6.997669e+00
5.219958072046855e-06	5.111238e+00	3.496082e+00	6.999566e+00
5.220958072046855e-06	5.111741e+00	3.496437e+00	7.001099e+00
5.221958072046855e-06	5.112149e+00	3.496819e+00	7.002340e+00
5.222100000000000e-06	5.112196e+00	3.496876e+00	7.002481e+00
5.222383855906290e-06	5.112274e+00	3.496986e+00	7.002718e+00
5.222829152749679e-06	5.112370e+00	3.497162e+00	7.003007e+00
5.223100000000000e-06	5.112416e+00	3.497269e+00	7.003147e+00
5.223127084725032e-06	5.112400e+00	3.497280e+00	7.003096e+00
5.223181254175096e-06	5.112361e+00	3.497303e+00	7.002974e+00
5.223289593075224e-06	5.112269e+00	3.497341e+00	7.002686e+00
5.223506270875482e-06	5.112075e+00	3.497414e+00	7.002080e+00
5.223939626475995e-06	5.111679e+00	3.497532e+00	7.000862e+00
5.224806337677022e-06	5.110866e+00	3.497684e+00	6.998375e+00
5.225806337677021e-06	5.109873e+00	3.497746e+00	6.995348e+00
5.226806337677022e-06	5.108778e+00	3.497665e+00	6.992002e+00
5.227806337677021e-06	5.107501e+00	3.497437e+00	6.988091e+00
5.228806337677022e-06	5.105895e+00	3.497032e+00	6.983170e+00
5.229806337677021e-06	5.103641e+00	3.496410e+00	6.976262e+00
5.230806337677021e-06	5.099763e+00	3.495430e+00	6.964363e+00
5.231806337677022e-06	5.085456e+00	3.493313e+00	6.920287e+00
5.232806337677021e-06	5.050988e+00	3.489304e+00	6.813878e+00
5.232931337677022e-06	5.042324e+00	3.488388e+00	6.787097e+00
5.233181337677021e-06	5.017532e+00	3.485489e+00	6.710695e+00
5.233681337677022e-06	4.962015e+00	3.476521e+00	6.540592e+00
5.234681337677021e-06	4.810137e+00	3.448895e+00	6.075260e+00
5.235289374230575e-06	4.671612e+00	3.423180e+00	5.651251e+00
5.235729755105861e-06	4.575507e+00	3.397457e+00	5.360415e+00
5.236156777417000e-06	4.495931e+00	3.368183e+00	5.121013e+00
5.236445746851597e-06	4.410631e+00	3.345772e+00	4.860132e+00
5.236724975849292e-06	4.273762e+00	3.319595e+00	4.440295e+00
5.237119855822044e-06	3.964478e+00	3.271931e+00	3.493027e+00
5.237483461612021e-06	3.457911e+00	3.206112e+00	1.949755e+00
5.238035097879269e-06	2.194279e+00	3.052635e+00	-1.868393e+00
5.238403787526458e-06	1.006544e+00	2.911114e+00	-5.429955e+00
5.238436896100614e-06	8.725891e-01	2.894924e+00	-5.828277e+00
5.238503113248925e-06	5.703201e-01	2.857857e+00	-6.721501e+00
5.238605503924039e-06	7.976151e-02	2.797646e+00	-8.167353e+00
5.238609108226323e-06	6.185532e-02	2.795429e+00	-8.219952e+00
5.238616316830892e-06	2.519989e-02	2.790852e+00	-8.327370e+00
5.238630734040031e-06	-4.841232e-02	2.781616e+00	-8.543014e+00
5.238640055807696e-06	-9.596252e-02	2.775558e+00	-8.682094e+00
5.238647712504341e-06	-1.347923e-01	2.770473e+00	-8.795466e+00
5.238656026478747e-06	-1.766930e-01	2.764812e+00	-8.917577e+00
5.238666933802531e-06	-2.314301e-01	2.757126e+00	-9.076769e+00
5.238691863896232e-06	-3.563309e-01	2.738922e+00	-9.439342e+00
5.238699652511561e-06	-3.949203e-01	2.732941e+00	-9.550996e+00
5.238702767957692e-06	-4.057465e-01	2.730511e+00	-9.580836e+00
5.238708998849955e-06	-4.166069e-01	2.725624e+00	-9.606199e+00
5.238721460634481e-06	-4.260674e-01	2.715828e+00	-9.618500e+00
5.238746384203532e-06	-4.336472e-01	2.696236e+00	-9.607260e+00
5.238796231341635e-06	-4.344177e-01	2.657368e+00	-9.539080e+00
5.239072159627002e-06	-4.090080e-01	2.451870e+00	-9.072560e+00
5.239424627645324e-06	-3.752251e-01	2.211979e+00	-8.482469e+00
5.240034737652967e-06	-3.213539e-01	1.840847e+00	-7.493876e+00
5.240690657259966e-06	-2.705307e-01	1.495960e+00	-6.477586e+00
5.241284539358836e-06	-2.313614e-01	1.232449e+00	-5.604519e+00
5.241837216421395e-06	-2.006683e-01	1.027061e+00	-4.835993e+00
5.242398822086359e-06	-1.745567e-01	8.531685e-01	-4.099755e+00
5.242973040704421e-06	-1.524467e-01	7.068138e-01	-3.395087e+00
5.243551914606720e-06	-1.343079e-01	5.876007e-01	-2.737860e+00
5.244126066593889e-06	-1.199188e-01	4.940681e-01	-2.145278e+00
5.244699089525057e-06	-1.086159e-01	4.218597e-01	-1.624325e+00
5.245271490962780e-06	-9.983444e-02	3.672485e-01	-1.189331e+00
5.245845441247935e-06	-9.300232e-02	3.264847e-01	-8.462183e-01
5.246418945332779e-06	-8.768463e-02	2.964516e-01	-5.895604e-01
5.246992791164196e-06	-8.349609e-02	2.743340e-01	-4.037784e-01
5.247566045289458e-06	-8.015060e-02	2.579880e-01	-2.726664e-01
5.248139649786323e-06	-7.744217e-02	2.458191e-01	-1.821986e-01
5.248773938136721e-06	-7.500839e-02	2.358513e-01	-1.161340e-01
5.249594732491540e-06	-7.246017e-02	2.264099e-01	-6.351228e-02
5.250594732491539e-06	-6.996155e-02	2.180023e-01	-2.742294e-02
5.251594732491540e-06	-6.793594e-02	2.117271e-01	-9.114495e-03
5.252594732491539e-06	-6.625748e-02	2.067795e-01	-6.361723e-04
5.253594732491540e-06	-6.483078e-02	2.025604e-01	3.089565e-03
5.254594732491540e-06	-6.356812e-02	1.986847e-01	4.579786e-03
5.255594732491540e-06	-6.240463e-02	1.948395e-01	5.100556e-03
5.256594732491540e-06	-6.125259e-02	1.905556e-01	5.362440e-03
5.257594732491539e-06	-5.981064e-02	1.846886e-01	6.229712e-03
