time	V(N021,Vo_led7)	V(Vcc_led,Vi_led7)	I(D28)
0.000000000000000e+00	3.814697e-05	0.000000e+00	5.385508e-15
1.020500000000002e-06	3.814697e-05	0.000000e+00	4.729379e-15
2.044500000000005e-06	3.814697e-05	0.000000e+00	4.973459e-15
3.068500000000007e-06	3.814697e-05	0.000000e+00	5.960277e-15
4.092500000000010e-06	3.814697e-05	0.000000e+00	1.075264e-14
5.010000000000000e-06	3.814697e-05	0.000000e+00	-5.773160e-15
5.010033159165411e-06	3.814697e-05	0.000000e+00	-4.064515e-06
5.010099477496234e-06	3.051758e-05	0.000000e+00	-1.574690e-05
5.010195570674537e-06	2.288818e-05	0.000000e+00	-4.185192e-05
5.010308640924323e-06	3.814697e-06	0.000000e+00	-8.599745e-05
5.010437410353211e-06	-1.907349e-05	0.000000e+00	-1.535528e-04
5.010637644906661e-06	-7.247925e-05	-3.814697e-06	-2.871274e-04
5.010923408372860e-06	-1.716614e-04	-7.629395e-06	-5.163553e-04
5.011321235345115e-06	-3.547668e-04	-2.288818e-05	-8.739707e-04
5.011863606896240e-06	-6.446838e-04	-4.959106e-05	-1.365682e-03
5.012597359652000e-06	-1.091003e-03	-9.918213e-05	-1.941547e-03
5.013597359651999e-06	-1.731873e-03	-1.792908e-04	-2.498870e-03
5.014597359652000e-06	-2.361298e-03	-2.670288e-04	-2.812143e-03
5.015200000000000e-06	-2.723694e-03	-3.204346e-04	-2.884506e-03
5.015586862009945e-06	4.009781e-01	3.688812e-03	1.168336e+00
5.015734012836895e-06	1.206127e+00	1.660156e-02	3.441921e+00
5.015876500552645e-06	2.455853e+00	4.900742e-02	6.828538e+00
5.016007674433328e-06	3.470365e+00	9.422684e-02	9.376701e+00
5.016065661633529e-06	3.839158e+00	1.182213e-01	1.023375e+01
5.016084025599599e-06	3.939941e+00	1.264839e-01	1.045522e+01
5.016120753531741e-06	4.121566e+00	1.435204e-01	1.083918e+01
5.016126544135718e-06	4.148735e+00	1.462479e-01	1.089552e+01
5.016138125343673e-06	4.200291e+00	1.517792e-01	1.100029e+01
5.016161287759584e-06	4.298321e+00	1.629868e-01	1.119557e+01
5.016200000000000e-06	4.454450e+00	1.819305e-01	1.150037e+01
5.016203871224042e-06	4.468729e+00	1.838570e-01	1.152715e+01
5.016211613672125e-06	4.496840e+00	1.877213e-01	1.157943e+01
5.016227098568292e-06	4.550624e+00	1.954880e-01	1.167714e+01
5.016258068360625e-06	4.648622e+00	2.111778e-01	1.184591e+01
5.016320007945290e-06	4.811667e+00	2.429237e-01	1.209357e+01
5.016443887114623e-06	5.068294e+00	3.069153e-01	1.240261e+01
5.016506195112903e-06	5.160854e+00	3.391266e-01	1.245896e+01
5.016540246115411e-06	5.186995e+00	3.566284e-01	1.242116e+01
5.016564113034814e-06	5.193501e+00	3.687668e-01	1.236137e+01
5.016591719127927e-06	5.196486e+00	3.826447e-01	1.228085e+01
5.016622911703708e-06	5.198534e+00	3.981323e-01	1.218851e+01
5.016660545446122e-06	5.200612e+00	4.164848e-01	1.208009e+01
5.016735812930953e-06	5.205485e+00	4.521828e-01	1.187716e+01
5.016863914394866e-06	5.215887e+00	5.103912e-01	1.156519e+01
5.017062459506847e-06	5.234622e+00	5.956078e-01	1.113694e+01
5.017260308099642e-06	5.255311e+00	6.752396e-01	1.076063e+01
5.017428649273794e-06	5.277408e+00	7.387962e-01	1.048546e+01
5.017572725202541e-06	5.302798e+00	7.902412e-01	1.028961e+01
5.017718731825909e-06	5.332541e+00	8.399734e-01	1.011847e+01
5.017853552066373e-06	5.359817e+00	8.837280e-01	9.972566e+00
5.018065936704365e-06	5.400147e+00	9.489098e-01	9.755051e+00
5.018314272738832e-06	5.437601e+00	1.019657e+00	9.498240e+00
5.018686288761428e-06	5.466768e+00	1.115726e+00	9.076607e+00
5.019031848885307e-06	5.469738e+00	1.195324e+00	8.652402e+00
5.019293482744683e-06	5.463566e+00	1.247948e+00	8.340199e+00
5.019647365475294e-06	5.454383e+00	1.309772e+00	7.975523e+00
5.020031216671623e-06	5.445106e+00	1.367058e+00	7.700290e+00
5.020758548164171e-06	5.428925e+00	1.458065e+00	7.450589e+00
5.021709928464015e-06	5.410058e+00	1.558804e+00	7.338046e+00
5.022709928464015e-06	5.392965e+00	1.648056e+00	7.288204e+00
5.023709928464015e-06	5.378550e+00	1.722992e+00	7.246082e+00
5.024709928464015e-06	5.366468e+00	1.785740e+00	7.210727e+00
5.025709928464015e-06	5.356364e+00	1.838280e+00	7.181159e+00
5.026709928464015e-06	5.347923e+00	1.882275e+00	7.156462e+00
5.027709928464015e-06	5.340876e+00	1.919113e+00	7.135848e+00
5.028709928464015e-06	5.334997e+00	1.949963e+00	7.118651e+00
5.029709928464015e-06	5.330096e+00	1.975803e+00	7.104313e+00
5.030709928464015e-06	5.326009e+00	1.997452e+00	7.092363e+00
5.031709928464015e-06	5.322605e+00	2.015587e+00	7.082408e+00
5.032709928464015e-06	5.319770e+00	2.030781e+00	7.074118e+00
5.033709928464015e-06	5.317411e+00	2.043518e+00	7.067218e+00
5.034709928464015e-06	5.315447e+00	2.054192e+00	7.061478e+00
5.035709928464015e-06	5.313815e+00	2.063137e+00	7.056705e+00
5.036709928464015e-06	5.312458e+00	2.070641e+00	7.052738e+00
5.037709928464015e-06	5.311332e+00	2.076935e+00	7.049444e+00
5.038709928464015e-06	5.310396e+00	2.082214e+00	7.046710e+00
5.039709928464015e-06	5.309621e+00	2.086647e+00	7.044442e+00
5.040709928464015e-06	5.308978e+00	2.090363e+00	7.042563e+00
5.041709928464015e-06	5.308446e+00	2.093487e+00	7.041009e+00
5.042709928464015e-06	5.308007e+00	2.096111e+00	7.039723e+00
5.043709928464015e-06	5.307643e+00	2.098312e+00	7.038661e+00
5.044709928464015e-06	5.307344e+00	2.100166e+00	7.037785e+00
5.045709928464015e-06	5.307097e+00	2.101723e+00	7.037064e+00
5.046709928464015e-06	5.306894e+00	2.103035e+00	7.036470e+00
5.047709928464015e-06	5.306728e+00	2.104137e+00	7.035984e+00
5.048709928464015e-06	5.306591e+00	2.105064e+00	7.035585e+00
5.049709928464015e-06	5.306480e+00	2.105850e+00	7.035260e+00
5.050709928464015e-06	5.306389e+00	2.106510e+00	7.034996e+00
5.051709928464015e-06	5.306316e+00	2.107067e+00	7.034781e+00
5.052709928464015e-06	5.306257e+00	2.107536e+00	7.034607e+00
5.053709928464015e-06	5.306209e+00	2.107937e+00	7.034467e+00
5.054709928464015e-06	5.306170e+00	2.108273e+00	7.034356e+00
5.055709928464015e-06	5.306140e+00	2.108555e+00	7.034267e+00
5.056709928464015e-06	5.306116e+00	2.108795e+00	7.034197e+00
5.057709928464015e-06	5.306098e+00	2.109001e+00	7.034142e+00
5.058709928464015e-06	5.306083e+00	2.109177e+00	7.034101e+00
5.059709928464015e-06	5.306072e+00	2.109325e+00	7.034069e+00
5.060709928464015e-06	5.306064e+00	2.109451e+00	7.034045e+00
5.061709928464015e-06	5.306058e+00	2.109558e+00	7.034028e+00
5.062709928464015e-06	5.306054e+00	2.109650e+00	7.034017e+00
5.063709928464015e-06	5.306052e+00	2.109726e+00	7.034009e+00
5.064709928464015e-06	5.306051e+00	2.109795e+00	7.034005e+00
5.065709928464015e-06	5.306050e+00	2.109848e+00	7.034004e+00
5.066709928464015e-06	5.306050e+00	2.109901e+00	7.034005e+00
5.067709928464015e-06	5.306051e+00	2.109943e+00	7.034007e+00
5.068709928464015e-06	5.306053e+00	2.109978e+00	7.034010e+00
5.069709928464015e-06	5.306054e+00	2.110012e+00	7.034015e+00
5.070709928464015e-06	5.306056e+00	2.110039e+00	7.034019e+00
5.071709928464015e-06	5.306057e+00	2.110062e+00	7.034025e+00
5.072709928464015e-06	5.306059e+00	2.110085e+00	7.034030e+00
5.073709928464015e-06	5.306061e+00	2.110100e+00	7.034036e+00
5.074709928464015e-06	5.306063e+00	2.110115e+00	7.034041e+00
5.075709928464015e-06	5.306065e+00	2.110130e+00	7.034047e+00
5.076709928464015e-06	5.306067e+00	2.110142e+00	7.034052e+00
5.077709928464015e-06	5.306069e+00	2.110153e+00	7.034058e+00
5.078709928464015e-06	5.306070e+00	2.110161e+00	7.034063e+00
5.079709928464015e-06	5.306072e+00	2.110168e+00	7.034068e+00
5.080709928464015e-06	5.306073e+00	2.110176e+00	7.034072e+00
5.081709928464015e-06	5.306075e+00	2.110184e+00	7.034077e+00
5.082709928464015e-06	5.306076e+00	2.110188e+00	7.034081e+00
5.083709928464015e-06	5.306077e+00	2.110195e+00	7.034084e+00
5.084709928464015e-06	5.306079e+00	2.110199e+00	7.034088e+00
5.085709928464015e-06	5.306080e+00	2.110203e+00	7.034091e+00
5.086709928464015e-06	5.306081e+00	2.110207e+00	7.034095e+00
5.087709928464015e-06	5.306082e+00	2.110210e+00	7.034098e+00
5.088709928464015e-06	5.306084e+00	2.110210e+00	7.034101e+00
5.089709928464015e-06	5.306084e+00	2.110214e+00	7.034103e+00
5.090709928464015e-06	5.306085e+00	2.110218e+00	7.034105e+00
5.091709928464015e-06	5.306086e+00	2.110218e+00	7.034108e+00
5.092709928464015e-06	5.306086e+00	2.110222e+00	7.034110e+00
5.093709928464015e-06	5.306087e+00	2.110222e+00	7.034111e+00
5.094709928464015e-06	5.306087e+00	2.110226e+00	7.034113e+00
5.095709928464015e-06	5.306088e+00	2.110226e+00	7.034115e+00
5.096709928464015e-06	5.306089e+00	2.110226e+00	7.034116e+00
5.097709928464015e-06	5.306089e+00	2.110229e+00	7.034118e+00
5.098709928464015e-06	5.306090e+00	2.110229e+00	7.034119e+00
5.099709928464015e-06	5.306090e+00	2.110229e+00	7.034120e+00
5.100709928464015e-06	5.306090e+00	2.110229e+00	7.034121e+00
5.101709928464015e-06	5.306091e+00	2.110233e+00	7.034122e+00
5.102709928464016e-06	5.306091e+00	2.110233e+00	7.034123e+00
5.103709928464015e-06	5.306091e+00	2.110233e+00	7.034124e+00
5.104709928464015e-06	5.306091e+00	2.110233e+00	7.034125e+00
5.105709928464015e-06	5.306091e+00	2.110233e+00	7.034125e+00
5.106709928464015e-06	5.306092e+00	2.110233e+00	7.034126e+00
5.107709928464015e-06	5.306093e+00	2.110233e+00	7.034127e+00
5.108709928464015e-06	5.306092e+00	2.110237e+00	7.034127e+00
5.109709928464015e-06	5.306093e+00	2.110237e+00	7.034128e+00
5.110709928464015e-06	5.306093e+00	2.110237e+00	7.034128e+00
5.111709928464015e-06	5.306093e+00	2.110237e+00	7.034129e+00
5.112709928464015e-06	5.306093e+00	2.110237e+00	7.034129e+00
5.113709928464015e-06	5.306093e+00	2.110237e+00	7.034130e+00
5.114709928464015e-06	5.306093e+00	2.110237e+00	7.034130e+00
5.115709928464015e-06	5.306093e+00	2.110237e+00	7.034130e+00
5.116709928464015e-06	5.306094e+00	2.110237e+00	7.034131e+00
5.117709928464015e-06	5.306093e+00	2.110237e+00	7.034131e+00
5.118709928464015e-06	5.306094e+00	2.110237e+00	7.034131e+00
5.119709928464016e-06	5.306094e+00	2.110237e+00	7.034131e+00
5.120709928464015e-06	5.306094e+00	2.110237e+00	7.034132e+00
5.121709928464015e-06	5.306094e+00	2.110237e+00	7.034132e+00
5.122709928464015e-06	5.306094e+00	2.110237e+00	7.034132e+00
5.123709928464015e-06	5.306094e+00	2.110237e+00	7.034132e+00
5.124709928464015e-06	5.306094e+00	2.110237e+00	7.034132e+00
5.125709928464015e-06	5.306094e+00	2.110241e+00	7.034132e+00
5.126709928464015e-06	5.306094e+00	2.110241e+00	7.034132e+00
5.127709928464015e-06	5.306094e+00	2.110241e+00	7.034132e+00
5.128709928464015e-06	5.306094e+00	2.110241e+00	7.034132e+00
5.129709928464015e-06	5.306094e+00	2.110241e+00	7.034132e+00
5.130709928464015e-06	5.306094e+00	2.110241e+00	7.034133e+00
5.131709928464016e-06	5.306094e+00	2.110241e+00	7.034133e+00
5.132709928464015e-06	5.306094e+00	2.110241e+00	7.034133e+00
5.133709928464015e-06	5.306095e+00	2.110241e+00	7.034133e+00
5.134709928464015e-06	5.306094e+00	2.110241e+00	7.034133e+00
5.135709928464015e-06	5.306094e+00	2.110241e+00	7.034133e+00
5.136709928464016e-06	5.306094e+00	2.110241e+00	7.034133e+00
5.137709928464015e-06	5.306094e+00	2.110241e+00	7.034133e+00
5.138709928464015e-06	5.306094e+00	2.110241e+00	7.034133e+00
5.139709928464015e-06	5.306095e+00	2.110241e+00	7.034133e+00
5.140709928464015e-06	5.306095e+00	2.110241e+00	7.034133e+00
5.141709928464016e-06	5.306094e+00	2.110241e+00	7.034133e+00
5.142709928464015e-06	5.306094e+00	2.110241e+00	7.034133e+00
5.143709928464015e-06	5.306094e+00	2.110241e+00	7.034133e+00
5.144709928464015e-06	5.306095e+00	2.110241e+00	7.034133e+00
5.145709928464015e-06	5.306094e+00	2.110241e+00	7.034133e+00
5.146709928464015e-06	5.306094e+00	2.110241e+00	7.034133e+00
5.147709928464015e-06	5.306094e+00	2.110241e+00	7.034133e+00
5.148709928464016e-06	5.306094e+00	2.110241e+00	7.034133e+00
5.149709928464015e-06	5.306094e+00	2.110241e+00	7.034133e+00
5.150709928464015e-06	5.306094e+00	2.110241e+00	7.034133e+00
5.151709928464015e-06	5.306094e+00	2.110241e+00	7.034133e+00
5.152709928464015e-06	5.306095e+00	2.110241e+00	7.034133e+00
5.153709928464016e-06	5.306095e+00	2.110241e+00	7.034134e+00
5.154709928464015e-06	5.306095e+00	2.110241e+00	7.034134e+00
5.155709928464015e-06	5.306095e+00	2.110241e+00	7.034134e+00
5.156709928464015e-06	5.306095e+00	2.110241e+00	7.034134e+00
5.157709928464015e-06	5.306095e+00	2.110241e+00	7.034134e+00
5.158709928464016e-06	5.306095e+00	2.110241e+00	7.034134e+00
5.159709928464015e-06	5.306095e+00	2.110241e+00	7.034134e+00
5.160709928464016e-06	5.306095e+00	2.110241e+00	7.034134e+00
5.161709928464015e-06	5.306095e+00	2.110241e+00	7.034134e+00
5.162709928464015e-06	5.306094e+00	2.110241e+00	7.034134e+00
5.163709928464015e-06	5.306094e+00	2.110241e+00	7.034134e+00
5.164709928464015e-06	5.306094e+00	2.110241e+00	7.034134e+00
5.165709928464016e-06	5.306094e+00	2.110241e+00	7.034134e+00
5.166709928464015e-06	5.306094e+00	2.110241e+00	7.034134e+00
5.167709928464015e-06	5.306094e+00	2.110241e+00	7.034134e+00
5.168709928464015e-06	5.306094e+00	2.110241e+00	7.034134e+00
5.169709928464015e-06	5.306094e+00	2.110241e+00	7.034134e+00
5.170709928464016e-06	5.306095e+00	2.110241e+00	7.034134e+00
5.171709928464015e-06	5.306095e+00	2.110241e+00	7.034134e+00
5.172709928464015e-06	5.306095e+00	2.110241e+00	7.034134e+00
5.173709928464015e-06	5.306095e+00	2.110241e+00	7.034134e+00
5.174709928464015e-06	5.306095e+00	2.110241e+00	7.034134e+00
5.175709928464016e-06	5.306095e+00	2.110241e+00	7.034134e+00
5.176709928464015e-06	5.306095e+00	2.110241e+00	7.034134e+00
5.177709928464016e-06	5.306095e+00	2.110241e+00	7.034134e+00
5.178709928464015e-06	5.306095e+00	2.110241e+00	7.034134e+00
5.179709928464015e-06	5.306095e+00	2.110241e+00	7.034134e+00
5.180709928464015e-06	5.306095e+00	2.110241e+00	7.034134e+00
5.181709928464015e-06	5.306095e+00	2.110241e+00	7.034134e+00
5.182709928464016e-06	5.306094e+00	2.110241e+00	7.034134e+00
5.183709928464015e-06	5.306094e+00	2.110241e+00	7.034134e+00
5.184709928464015e-06	5.306094e+00	2.110241e+00	7.034134e+00
5.185709928464015e-06	5.306094e+00	2.110241e+00	7.034134e+00
5.186709928464015e-06	5.306094e+00	2.110241e+00	7.034134e+00
5.187709928464016e-06	5.306094e+00	2.110241e+00	7.034134e+00
5.188709928464015e-06	5.306094e+00	2.110241e+00	7.034134e+00
5.189709928464016e-06	5.306094e+00	2.110241e+00	7.034134e+00
5.190709928464015e-06	5.306094e+00	2.110241e+00	7.034134e+00
5.191709928464015e-06	5.306095e+00	2.110241e+00	7.034134e+00
5.192709928464016e-06	5.306095e+00	2.110241e+00	7.034134e+00
5.193709928464015e-06	5.306094e+00	2.110241e+00	7.034134e+00
5.194709928464016e-06	5.306094e+00	2.110241e+00	7.034134e+00
5.195709928464015e-06	5.306095e+00	2.110241e+00	7.034134e+00
5.196709928464015e-06	5.306095e+00	2.110241e+00	7.034134e+00
5.197709928464015e-06	5.306094e+00	2.110241e+00	7.034134e+00
5.198709928464015e-06	5.306094e+00	2.110241e+00	7.034134e+00
5.199709928464016e-06	5.306095e+00	2.110241e+00	7.034134e+00
5.200709928464015e-06	5.306095e+00	2.110241e+00	7.034134e+00
5.201709928464016e-06	5.306095e+00	2.110241e+00	7.034134e+00
5.202709928464015e-06	5.306095e+00	2.110241e+00	7.034134e+00
5.203709928464015e-06	5.306094e+00	2.110241e+00	7.034134e+00
5.204709928464016e-06	5.306094e+00	2.110241e+00	7.034134e+00
5.205709928464015e-06	5.306095e+00	2.110241e+00	7.034134e+00
5.206709928464016e-06	5.306095e+00	2.110241e+00	7.034134e+00
5.207709928464015e-06	5.306095e+00	2.110241e+00	7.034134e+00
5.208709928464015e-06	5.306095e+00	2.110241e+00	7.034134e+00
5.209709928464016e-06	5.306095e+00	2.110241e+00	7.034134e+00
5.210709928464015e-06	5.306095e+00	2.110241e+00	7.034134e+00
5.211709928464016e-06	5.306095e+00	2.110241e+00	7.034134e+00
5.212709928464015e-06	5.306095e+00	2.110241e+00	7.034134e+00
5.213709928464015e-06	5.306095e+00	2.110241e+00	7.034134e+00
5.214709928464015e-06	5.306095e+00	2.110241e+00	7.034134e+00
5.215200000000000e-06	5.306094e+00	2.110241e+00	7.034134e+00
5.215219856928031e-06	5.306094e+00	2.110241e+00	7.034134e+00
5.215259570784092e-06	5.306095e+00	2.110241e+00	7.034134e+00
5.215338998496216e-06	5.306094e+00	2.110241e+00	7.034134e+00
5.215497853920461e-06	5.306095e+00	2.110241e+00	7.034134e+00
5.215815564768955e-06	5.306094e+00	2.110241e+00	7.034134e+00
5.216200000000000e-06	5.306094e+00	2.110241e+00	7.034132e+00
5.216238443523105e-06	5.306124e+00	2.110241e+00	7.034222e+00
5.216315330569314e-06	5.306192e+00	2.110241e+00	7.034425e+00
5.216469104661732e-06	5.306340e+00	2.110245e+00	7.034867e+00
5.216776652846568e-06	5.306635e+00	2.110268e+00	7.035736e+00
5.217391749216241e-06	5.307184e+00	2.110336e+00	7.037345e+00
5.218391749216241e-06	5.307985e+00	2.110519e+00	7.039690e+00
5.219391749216242e-06	5.308679e+00	2.110756e+00	7.041720e+00
5.220391749216241e-06	5.309258e+00	2.111038e+00	7.043409e+00
5.221391749216242e-06	5.309726e+00	2.111347e+00	7.044779e+00
5.222100000000000e-06	5.309974e+00	2.111572e+00	7.045502e+00
5.223100000000000e-06	5.310230e+00	2.111881e+00	7.046249e+00
5.223200000000000e-06	5.310155e+00	2.111912e+00	7.046024e+00
5.223400000000000e-06	5.309988e+00	2.111961e+00	7.045525e+00
5.223800000000000e-06	5.309630e+00	2.112045e+00	7.044469e+00
5.224600000000000e-06	5.308894e+00	2.112141e+00	7.042310e+00
5.225600000000000e-06	5.307926e+00	2.112152e+00	7.039478e+00
5.226600000000000e-06	5.306866e+00	2.112041e+00	7.036372e+00
5.227600000000000e-06	5.305640e+00	2.111805e+00	7.032772e+00
5.228600000000000e-06	5.304118e+00	2.111435e+00	7.028305e+00
5.229600000000000e-06	5.302034e+00	2.110889e+00	7.022187e+00
5.230600000000000e-06	5.298646e+00	2.110081e+00	7.012228e+00
5.231600000000000e-06	5.288494e+00	2.108543e+00	6.982322e+00
5.232600000000000e-06	5.249929e+00	2.104176e+00	6.868574e+00
5.233600000000000e-06	5.165179e+00	2.092743e+00	6.619302e+00
5.234600000000000e-06	5.012064e+00	2.069847e+00	6.169405e+00
5.235264604449668e-06	4.861229e+00	2.044697e+00	5.727458e+00
5.235676968994837e-06	4.778837e+00	2.023445e+00	5.488690e+00
5.236049902756905e-06	4.709790e+00	2.001057e+00	5.288592e+00
5.236447980600933e-06	4.588455e+00	1.973660e+00	4.932766e+00
5.236826012392783e-06	4.380865e+00	1.940346e+00	4.323537e+00
5.237305361733592e-06	3.896721e+00	1.879391e+00	2.906249e+00
5.237779565343777e-06	3.009237e+00	1.780159e+00	3.292714e-01
5.238328061497434e-06	1.463755e+00	1.612438e+00	-4.127964e+00
5.238391045578583e-06	1.225960e+00	1.586411e+00	-4.807768e+00
5.238517013740880e-06	6.656914e-01	1.524559e+00	-6.400238e+00
5.238548505781454e-06	5.163956e-01	1.507973e+00	-6.823059e+00
5.238611489862603e-06	2.028580e-01	1.472893e+00	-7.708510e+00
5.238622359429411e-06	1.474342e-01	1.466652e+00	-7.864738e+00
5.238644098563028e-06	3.418732e-02	1.453815e+00	-8.183328e+00
5.238663565148299e-06	-6.799698e-02	1.442108e+00	-8.470387e+00
5.238676249422986e-06	-1.344986e-01	1.434273e+00	-8.656758e+00
5.238685546852837e-06	-1.816940e-01	1.428352e+00	-8.788485e+00
5.238694579116034e-06	-2.234306e-01	1.422466e+00	-8.903992e+00
5.238695881851441e-06	-2.272377e-01	1.421604e+00	-8.913937e+00
5.238698487322253e-06	-2.305984e-01	1.419872e+00	-8.920903e+00
5.238703698263879e-06	-2.354088e-01	1.416397e+00	-8.929028e+00
5.238714120147130e-06	-2.425423e-01	1.409443e+00	-8.937843e+00
5.238734963913630e-06	-2.503166e-01	1.395546e+00	-8.936035e+00
5.238776651446632e-06	-2.531700e-01	1.367962e+00	-8.894068e+00
5.239001106378193e-06	-2.372932e-01	1.226334e+00	-8.576721e+00
5.239293832999965e-06	-2.139130e-01	1.058826e+00	-8.161654e+00
5.239879286243510e-06	-1.707458e-01	7.636337e-01	-7.356412e+00
5.240482757913679e-06	-1.321487e-01	5.058289e-01	-6.561333e+00
5.241024628566210e-06	-1.034050e-01	3.169479e-01	-5.883289e+00
5.241610382043046e-06	-7.804871e-02	1.524925e-01	-5.187913e+00
5.242170932258957e-06	-5.852890e-02	2.767563e-02	-4.557610e+00
5.242759258718016e-06	-4.244232e-02	-7.342148e-02	-3.933358e+00
5.243322932125678e-06	-3.059387e-02	-1.460114e-01	-3.371583e+00
5.243904580119835e-06	-2.072906e-02	-2.027702e-01	-2.824918e+00
5.244211305842812e-06	-1.580048e-02	-2.280159e-01	-2.548394e+00
5.244242427261983e-06	-1.532745e-02	-2.304764e-01	-2.521182e+00
5.244255466007456e-06	-1.514816e-02	-2.315140e-01	-2.509979e+00
5.244267646093331e-06	-1.498795e-02	-2.324753e-01	-2.499540e+00
5.244277736309391e-06	-1.485062e-02	-2.332611e-01	-2.490903e+00
5.244288331152061e-06	-1.470947e-02	-2.340851e-01	-2.481855e+00
5.244300933102595e-06	-1.454544e-02	-2.350540e-01	-2.471110e+00
