time	V(N021,Vo_led7)	V(Vcc_led,Vi_led7)	I(D28)
0.000000000000000e+00	3.814697e-05	0.000000e+00	3.669048e-15
1.020500000000002e-06	3.814697e-05	0.000000e+00	8.296676e-15
2.044500000000005e-06	3.814697e-05	0.000000e+00	1.332922e-14
3.068500000000007e-06	3.814697e-05	0.000000e+00	3.848093e-15
4.092500000000010e-06	3.814697e-05	0.000000e+00	-1.875842e-15
5.010000000000000e-06	3.814697e-05	0.000000e+00	3.492757e-15
5.010006600110000e-06	3.814697e-05	0.000000e+00	1.503979e-15
5.010019800330000e-06	3.814697e-05	0.000000e+00	2.400123e-15
5.010415806929999e-06	3.814697e-05	0.000000e+00	1.072440e-14
5.010599445609685e-06	3.814697e-05	0.000000e+00	1.110757e-14
5.010705813438823e-06	3.814697e-05	0.000000e+00	1.164783e-14
5.010792027554202e-06	3.814697e-05	0.000000e+00	1.188975e-14
5.010872258505358e-06	3.814697e-05	0.000000e+00	1.081651e-14
5.010968106253043e-06	3.814697e-05	0.000000e+00	9.495821e-15
5.011067908903531e-06	3.814697e-05	0.000000e+00	9.464601e-15
5.011267514204508e-06	3.814697e-05	0.000000e+00	1.035340e-14
5.011666724806462e-06	3.814697e-05	0.000000e+00	1.211998e-14
5.012465146010369e-06	3.814697e-05	0.000000e+00	1.453751e-14
5.013396180588134e-06	3.814697e-05	0.000000e+00	1.597515e-14
5.014396180588134e-06	3.814697e-05	0.000000e+00	1.299348e-14
5.015000000000000e-06	3.814697e-05	0.000000e+00	8.320522e-15
5.016000000000000e-06	3.814697e-05	0.000000e+00	-1.564579e-15
5.016100000000000e-06	3.814697e-05	0.000000e+00	1.632524e-15
5.016300000000000e-06	3.814697e-05	0.000000e+00	5.224445e-15
5.016700000000000e-06	3.814697e-05	0.000000e+00	7.822895e-15
5.017500000000000e-06	3.814697e-05	0.000000e+00	4.824731e-15
5.018500000000000e-06	3.814697e-05	0.000000e+00	-4.218847e-15
5.019500000000000e-06	-4.196167e-05	0.000000e+00	-2.188846e-04
5.019901114246211e-06	-2.365112e-04	-7.629395e-06	-7.490378e-04
5.020148754470178e-06	-4.997253e-04	-1.907349e-05	-1.425263e-03
5.020353181389593e-06	-7.629395e-04	-3.433228e-05	-2.044393e-03
5.020571015494787e-06	-1.029968e-03	-5.722046e-05	-2.573245e-03
5.020793999715306e-06	-1.266479e-03	-8.392334e-05	-2.930410e-03
5.021239968156342e-06	-1.659393e-03	-1.411438e-04	-3.267838e-03
5.021933452582527e-06	-2.120972e-03	-2.326965e-04	-3.292122e-03
5.022900942360148e-06	-2.613068e-03	-3.509521e-04	-2.888761e-03
5.023025942360148e-06	-2.658844e-03	-3.623962e-04	-2.810357e-03
5.023275942360148e-06	-2.731323e-03	-3.852844e-04	-2.625740e-03
5.023775942360148e-06	-2.445221e-03	-4.196167e-04	-9.705770e-04
5.023885991900330e-06	8.469009e-02	-8.392334e-05	2.717766e-01
5.023933724404785e-06	2.853394e-01	9.384155e-04	8.964271e-01
5.023967004957898e-06	5.432358e-01	2.880096e-03	1.690411e+00
5.023999379585231e-06	8.106232e-01	6.092072e-03	2.496438e+00
5.024037107779939e-06	1.094963e+00	1.153946e-02	3.325756e+00
5.024112564169355e-06	1.609890e+00	2.707672e-02	4.755556e+00
5.024255423215943e-06	2.435587e+00	6.797791e-02	6.879645e+00
5.024482580536997e-06	3.425759e+00	1.527061e-01	9.150612e+00
5.024787665009100e-06	4.305836e+00	2.872581e-01	1.082139e+01
5.025104268848189e-06	4.891799e+00	4.379272e-01	1.161756e+01
5.025129075832556e-06	4.922950e+00	4.499893e-01	1.163978e+01
5.025178689801290e-06	4.969507e+00	4.741287e-01	1.164319e+01
5.025277917738758e-06	5.050161e+00	5.220795e-01	1.161967e+01
5.025364194712077e-06	5.109328e+00	5.633965e-01	1.157309e+01
5.025414168427841e-06	5.136860e+00	5.870819e-01	1.152916e+01
5.025447021209890e-06	5.148693e+00	6.025047e-01	1.148248e+01
5.025478783682157e-06	5.153594e+00	6.172791e-01	1.141813e+01
5.025507445937859e-06	5.154626e+00	6.304893e-01	1.135058e+01
5.025539415670222e-06	5.154566e+00	6.450310e-01	1.127316e+01
5.025603355134948e-06	5.154151e+00	6.736336e-01	1.112166e+01
5.025679780327799e-06	5.154258e+00	7.069397e-01	1.095002e+01
5.025832630713503e-06	5.156362e+00	7.709122e-01	1.063377e+01
5.026055658218169e-06	5.161704e+00	8.594818e-01	1.021451e+01
5.026290879326161e-06	5.170046e+00	9.469261e-01	9.820786e+00
5.026570496346906e-06	5.186571e+00	1.043690e+00	9.417595e+00
5.026831006638880e-06	5.210079e+00	1.127983e+00	9.100780e+00
5.027043264049165e-06	5.232789e+00	1.192455e+00	8.876506e+00
5.027273540974171e-06	5.257586e+00	1.257870e+00	8.659068e+00
5.027675598604641e-06	5.299422e+00	1.363823e+00	8.336608e+00
5.028134652581239e-06	5.338703e+00	1.474216e+00	8.087721e+00
5.028918705303676e-06	5.373016e+00	1.645512e+00	7.882783e+00
5.029650596938484e-06	5.370734e+00	1.792744e+00	7.794857e+00
5.030232631546591e-06	5.355554e+00	1.900913e+00	7.745747e+00
5.030863620722933e-06	5.338466e+00	2.009533e+00	7.693837e+00
5.031655922595521e-06	5.318331e+00	2.134941e+00	7.632169e+00
5.032655922595520e-06	5.294993e+00	2.278717e+00	7.560758e+00
5.033655922595521e-06	5.274048e+00	2.407898e+00	7.496697e+00
5.034655922595520e-06	5.255428e+00	2.523216e+00	7.439762e+00
5.035655922595520e-06	5.238920e+00	2.626171e+00	7.389303e+00
5.036655922595520e-06	5.224282e+00	2.718105e+00	7.344574e+00
5.037655922595520e-06	5.211315e+00	2.800213e+00	7.304961e+00
5.038655922595521e-06	5.199820e+00	2.873558e+00	7.269849e+00
5.039655922595520e-06	5.189631e+00	2.939083e+00	7.238736e+00
5.040655922595521e-06	5.180594e+00	2.997635e+00	7.211143e+00
5.041655922595520e-06	5.172578e+00	3.049965e+00	7.186674e+00
5.042655922595520e-06	5.165463e+00	3.096741e+00	7.164956e+00
5.043655922595521e-06	5.159148e+00	3.138561e+00	7.145681e+00
5.044655922595520e-06	5.153537e+00	3.175949e+00	7.128561e+00
5.045655922595521e-06	5.148554e+00	3.209385e+00	7.113354e+00
5.046655922595520e-06	5.144124e+00	3.239288e+00	7.099838e+00
5.047655922595520e-06	5.140186e+00	3.266037e+00	7.087823e+00
5.048655922595521e-06	5.136683e+00	3.289970e+00	7.077138e+00
5.049655922595520e-06	5.133568e+00	3.311378e+00	7.067635e+00
5.050655922595521e-06	5.130796e+00	3.330536e+00	7.059177e+00
5.051655922595520e-06	5.128329e+00	3.347679e+00	7.051651e+00
5.052655922595520e-06	5.126132e+00	3.363026e+00	7.044951e+00
5.053655922595520e-06	5.124176e+00	3.376762e+00	7.038987e+00
5.054655922595520e-06	5.122434e+00	3.389057e+00	7.033674e+00
5.055655922595521e-06	5.120883e+00	3.400066e+00	7.028944e+00
5.056655922595520e-06	5.119501e+00	3.409920e+00	7.024729e+00
5.057655922595521e-06	5.118270e+00	3.418747e+00	7.020974e+00
5.058655922595520e-06	5.117172e+00	3.426651e+00	7.017629e+00
5.059655922595520e-06	5.116195e+00	3.433731e+00	7.014648e+00
5.060655922595521e-06	5.115324e+00	3.440071e+00	7.011992e+00
5.061655922595520e-06	5.114548e+00	3.445751e+00	7.009626e+00
5.062655922595521e-06	5.113856e+00	3.450844e+00	7.007517e+00
5.063655922595520e-06	5.113240e+00	3.455402e+00	7.005637e+00
5.064655922595520e-06	5.112691e+00	3.459488e+00	7.003963e+00
5.065655922595521e-06	5.112202e+00	3.463150e+00	7.002470e+00
5.066655922595520e-06	5.111766e+00	3.466434e+00	7.001141e+00
5.067655922595521e-06	5.111377e+00	3.469376e+00	6.999957e+00
5.068655922595520e-06	5.111031e+00	3.472015e+00	6.998901e+00
5.069655922595521e-06	5.110723e+00	3.474380e+00	6.997962e+00
5.070655922595520e-06	5.110449e+00	3.476501e+00	6.997125e+00
5.071655922595520e-06	5.110204e+00	3.478401e+00	6.996380e+00
5.072655922595521e-06	5.109987e+00	3.480110e+00	6.995717e+00
5.073655922595520e-06	5.109793e+00	3.481640e+00	6.995127e+00
5.074655922595521e-06	5.109621e+00	3.483013e+00	6.994601e+00
5.075655922595520e-06	5.109468e+00	3.484245e+00	6.994134e+00
5.076655922595520e-06	5.109332e+00	3.485352e+00	6.993719e+00
5.077655922595521e-06	5.109211e+00	3.486343e+00	6.993350e+00
5.078655922595520e-06	5.109103e+00	3.487236e+00	6.993022e+00
5.079655922595521e-06	5.109007e+00	3.488037e+00	6.992731e+00
5.080655922595520e-06	5.108923e+00	3.488754e+00	6.992472e+00
5.081655922595520e-06	5.108847e+00	3.489399e+00	6.992243e+00
5.082655922595521e-06	5.108781e+00	3.489979e+00	6.992039e+00
5.083655922595520e-06	5.108721e+00	3.490501e+00	6.991859e+00
5.084655922595521e-06	5.108669e+00	3.490971e+00	6.991699e+00
5.085655922595520e-06	5.108623e+00	3.491390e+00	6.991558e+00
5.086655922595521e-06	5.108582e+00	3.491768e+00	6.991433e+00
5.087655922595520e-06	5.108545e+00	3.492111e+00	6.991323e+00
5.088655922595520e-06	5.108513e+00	3.492416e+00	6.991225e+00
5.089655922595521e-06	5.108485e+00	3.492691e+00	6.991139e+00
5.090655922595520e-06	5.108461e+00	3.492943e+00	6.991064e+00
5.091655922595521e-06	5.108439e+00	3.493164e+00	6.990997e+00
5.092655922595520e-06	5.108419e+00	3.493366e+00	6.990939e+00
5.093655922595520e-06	5.108403e+00	3.493549e+00	6.990888e+00
5.094655922595521e-06	5.108388e+00	3.493713e+00	6.990843e+00
5.095655922595520e-06	5.108375e+00	3.493858e+00	6.990804e+00
5.096655922595521e-06	5.108364e+00	3.493992e+00	6.990769e+00
5.097655922595520e-06	5.108354e+00	3.494114e+00	6.990740e+00
5.098655922595521e-06	5.108346e+00	3.494225e+00	6.990714e+00
5.099655922595521e-06	5.108339e+00	3.494320e+00	6.990692e+00
5.100655922595520e-06	5.108332e+00	3.494408e+00	6.990673e+00
5.101655922595521e-06	5.108327e+00	3.494492e+00	6.990656e+00
5.102655922595520e-06	5.108323e+00	3.494560e+00	6.990642e+00
5.103655922595521e-06	5.108318e+00	3.494629e+00	6.990630e+00
5.104655922595520e-06	5.108315e+00	3.494690e+00	6.990620e+00
5.105655922595520e-06	5.108312e+00	3.494743e+00	6.990612e+00
5.106655922595521e-06	5.108310e+00	3.494789e+00	6.990605e+00
5.107655922595520e-06	5.108308e+00	3.494835e+00	6.990599e+00
5.108655922595521e-06	5.108307e+00	3.494873e+00	6.990594e+00
5.109655922595520e-06	5.108305e+00	3.494911e+00	6.990591e+00
5.110655922595520e-06	5.108304e+00	3.494946e+00	6.990588e+00
5.111655922595521e-06	5.108304e+00	3.494976e+00	6.990586e+00
5.112655922595520e-06	5.108303e+00	3.495003e+00	6.990584e+00
5.113655922595521e-06	5.108303e+00	3.495029e+00	6.990583e+00
5.114655922595520e-06	5.108303e+00	3.495052e+00	6.990583e+00
5.115655922595521e-06	5.108303e+00	3.495071e+00	6.990582e+00
5.116655922595521e-06	5.108303e+00	3.495090e+00	6.990583e+00
5.117655922595520e-06	5.108303e+00	3.495110e+00	6.990583e+00
5.118655922595521e-06	5.108303e+00	3.495125e+00	6.990584e+00
5.119655922595520e-06	5.108304e+00	3.495140e+00	6.990585e+00
5.120655922595521e-06	5.108304e+00	3.495152e+00	6.990587e+00
5.121655922595520e-06	5.108305e+00	3.495163e+00	6.990588e+00
5.122655922595520e-06	5.108305e+00	3.495174e+00	6.990589e+00
5.123655922595521e-06	5.108306e+00	3.495186e+00	6.990591e+00
5.124655922595520e-06	5.108306e+00	3.495197e+00	6.990592e+00
5.125655922595521e-06	5.108307e+00	3.495205e+00	6.990594e+00
5.126655922595520e-06	5.108307e+00	3.495213e+00	6.990596e+00
5.127655922595521e-06	5.108307e+00	3.495220e+00	6.990598e+00
5.128655922595521e-06	5.108308e+00	3.495228e+00	6.990599e+00
5.129655922595520e-06	5.108309e+00	3.495232e+00	6.990601e+00
5.130655922595521e-06	5.108309e+00	3.495239e+00	6.990602e+00
5.131655922595520e-06	5.108310e+00	3.495243e+00	6.990604e+00
5.132655922595521e-06	5.108310e+00	3.495251e+00	6.990606e+00
5.133655922595521e-06	5.108311e+00	3.495255e+00	6.990607e+00
5.134655922595520e-06	5.108311e+00	3.495258e+00	6.990609e+00
5.135655922595521e-06	5.108312e+00	3.495262e+00	6.990611e+00
5.136655922595520e-06	5.108313e+00	3.495266e+00	6.990612e+00
5.137655922595521e-06	5.108313e+00	3.495270e+00	6.990613e+00
5.138655922595521e-06	5.108313e+00	3.495274e+00	6.990615e+00
5.139655922595520e-06	5.108314e+00	3.495277e+00	6.990616e+00
5.140655922595521e-06	5.108314e+00	3.495277e+00	6.990618e+00
5.141655922595520e-06	5.108315e+00	3.495281e+00	6.990619e+00
5.142655922595521e-06	5.108315e+00	3.495285e+00	6.990620e+00
5.143655922595520e-06	5.108315e+00	3.495285e+00	6.990622e+00
5.145655922595521e-06	5.108316e+00	3.495289e+00	6.990624e+00
5.147655922595521e-06	5.108317e+00	3.495293e+00	6.990626e+00
5.149655922595521e-06	5.108318e+00	3.495296e+00	6.990628e+00
5.151655922595520e-06	5.108318e+00	3.495300e+00	6.990630e+00
5.153655922595520e-06	5.108319e+00	3.495304e+00	6.990631e+00
5.155655922595521e-06	5.108319e+00	3.495304e+00	6.990633e+00
5.157655922595521e-06	5.108320e+00	3.495308e+00	6.990634e+00
5.159655922595521e-06	5.108320e+00	3.495308e+00	6.990635e+00
5.161655922595521e-06	5.108321e+00	3.495312e+00	6.990636e+00
5.163655922595520e-06	5.108321e+00	3.495312e+00	6.990638e+00
5.165655922595520e-06	5.108321e+00	3.495312e+00	6.990638e+00
5.167655922595521e-06	5.108321e+00	3.495316e+00	6.990639e+00
5.169655922595521e-06	5.108322e+00	3.495316e+00	6.990640e+00
5.171655922595521e-06	5.108322e+00	3.495316e+00	6.990641e+00
5.173655922595521e-06	5.108322e+00	3.495316e+00	6.990642e+00
5.175655922595520e-06	5.108322e+00	3.495316e+00	6.990642e+00
5.177655922595520e-06	5.108323e+00	3.495319e+00	6.990643e+00
5.178655922595521e-06	5.108323e+00	3.495319e+00	6.990643e+00
5.179655922595521e-06	5.108322e+00	3.495319e+00	6.990643e+00
5.180000000000000e-06	5.108323e+00	3.495319e+00	6.990644e+00
5.180311845191041e-06	5.108323e+00	3.495319e+00	6.990643e+00
5.180376309617917e-06	5.108322e+00	3.495319e+00	6.990643e+00
5.180505238471669e-06	5.108323e+00	3.495319e+00	6.990644e+00
5.180763096179173e-06	5.108323e+00	3.495319e+00	6.990644e+00
5.181000000000000e-06	5.108321e+00	3.495319e+00	6.990639e+00
5.181023690382082e-06	5.108322e+00	3.495319e+00	6.990642e+00
5.181071071146248e-06	5.108323e+00	3.495319e+00	6.990644e+00
5.181165832674579e-06	5.108323e+00	3.495319e+00	6.990644e+00
5.181355355731240e-06	5.108323e+00	3.495319e+00	6.990644e+00
5.181734401844563e-06	5.108323e+00	3.495319e+00	6.990644e+00
5.182492494071209e-06	5.108323e+00	3.495319e+00	6.990644e+00
5.184492494071209e-06	5.108323e+00	3.495319e+00	6.990644e+00
5.185492494071209e-06	5.108323e+00	3.495319e+00	6.990644e+00
5.186000000000000e-06	5.108323e+00	3.495319e+00	6.990644e+00
5.186301181655043e-06	5.108323e+00	3.495319e+00	6.990644e+00
5.186397636689913e-06	5.108323e+00	3.495319e+00	6.990644e+00
5.186590546759652e-06	5.108323e+00	3.495319e+00	6.990644e+00
5.186696421029877e-06	5.108323e+00	3.495319e+00	6.990644e+00
5.186788251459550e-06	5.108323e+00	3.495319e+00	6.990644e+00
5.186816339140654e-06	5.108323e+00	3.495319e+00	6.990644e+00
5.186872514502863e-06	5.108323e+00	3.495319e+00	6.990644e+00
5.186887649275583e-06	5.108323e+00	3.495319e+00	6.990644e+00
5.186917918821023e-06	5.108323e+00	3.495319e+00	6.990644e+00
5.186939460909121e-06	5.108323e+00	3.495319e+00	6.990644e+00
5.186956915823802e-06	5.108323e+00	3.495319e+00	6.990644e+00
5.186965090170638e-06	5.108323e+00	3.495319e+00	6.990644e+00
5.186981438864309e-06	5.108323e+00	3.495319e+00	6.990644e+00
5.187000000000000e-06	5.108323e+00	3.495319e+00	6.990644e+00
5.187000330000000e-06	5.108323e+00	3.495319e+00	6.990644e+00
5.187000990000000e-06	5.108323e+00	3.495319e+00	6.990644e+00
5.187002310000000e-06	5.108323e+00	3.495319e+00	6.990644e+00
5.187004950000000e-06	5.108323e+00	3.495319e+00	6.990644e+00
5.187010230000000e-06	5.108323e+00	3.495319e+00	6.990644e+00
5.187397103012628e-06	5.108323e+00	3.495319e+00	6.990645e+00
5.187783976025258e-06	5.108323e+00	3.495319e+00	6.990645e+00
5.188170849037886e-06	5.108323e+00	3.495319e+00	6.990645e+00
5.188557722050515e-06	5.108323e+00	3.495319e+00	6.990645e+00
5.188944595063143e-06	5.108323e+00	3.495319e+00	6.990645e+00
5.189331468075773e-06	5.108323e+00	3.495319e+00	6.990645e+00
5.189718341088401e-06	5.108323e+00	3.495319e+00	6.990645e+00
5.190421603730218e-06	5.108323e+00	3.495319e+00	6.990645e+00
5.191007686928805e-06	5.108323e+00	3.495319e+00	6.990645e+00
5.191593770127393e-06	5.108323e+00	3.495319e+00	6.990645e+00
5.192179853325979e-06	5.108323e+00	3.495319e+00	6.990645e+00
5.192765936524567e-06	5.108324e+00	3.495320e+00	6.990645e+00
5.193352019723154e-06	5.108324e+00	3.495321e+00	6.990645e+00
5.193938102921742e-06	5.108323e+00	3.495322e+00	6.990645e+00
5.194524186120329e-06	5.108323e+00	3.495323e+00	6.990645e+00
5.195202252009745e-06	5.108923e+00	3.495346e+00	6.992514e+00
5.195727672166840e-06	5.110507e+00	3.495426e+00	6.997428e+00
5.196092734887858e-06	5.111791e+00	3.495556e+00	7.001357e+00
5.196332425223764e-06	5.112089e+00	3.495667e+00	7.002220e+00
5.196551326364946e-06	5.112010e+00	3.495773e+00	7.001928e+00
5.196784251304888e-06	5.111912e+00	3.495876e+00	7.001606e+00
5.197250101184771e-06	5.111730e+00	3.496071e+00	7.001038e+00
5.198181800944537e-06	5.111366e+00	3.496399e+00	6.999923e+00
5.199181800944538e-06	5.110983e+00	3.496681e+00	6.998752e+00
5.200181800944537e-06	5.110603e+00	3.496891e+00	6.997593e+00
5.201181800944538e-06	5.110224e+00	3.497032e+00	6.996435e+00
5.202181800944537e-06	5.109840e+00	3.497108e+00	6.995264e+00
5.203181800944537e-06	5.109449e+00	3.497128e+00	6.994066e+00
5.204181800944538e-06	5.109043e+00	3.497093e+00	6.992827e+00
5.205181800944537e-06	5.108617e+00	3.497005e+00	6.991528e+00
5.206181800944538e-06	5.108164e+00	3.496868e+00	6.990145e+00
5.207181800944537e-06	5.107676e+00	3.496681e+00	6.988651e+00
5.208181800944537e-06	5.107139e+00	3.496437e+00	6.987011e+00
5.209181800944538e-06	5.106539e+00	3.496143e+00	6.985176e+00
5.210181800944537e-06	5.105853e+00	3.495789e+00	6.983079e+00
5.211181800944538e-06	5.105049e+00	3.495365e+00	6.980623e+00
5.212181800944537e-06	5.104079e+00	3.494858e+00	6.977660e+00
5.213181800944538e-06	5.102865e+00	3.494255e+00	6.973943e+00
5.214181800944537e-06	5.101263e+00	3.493515e+00	6.969031e+00
5.215181800944537e-06	5.098969e+00	3.492577e+00	6.962000e+00
5.216181800944538e-06	5.095170e+00	3.491318e+00	6.950339e+00
5.217181800944537e-06	5.085389e+00	3.489254e+00	6.920228e+00
5.218181800944538e-06	5.059448e+00	3.484978e+00	6.840392e+00
5.219181800944537e-06	5.012408e+00	3.476196e+00	6.696147e+00
5.220181800944537e-06	4.951837e+00	3.461014e+00	6.511135e+00
5.221181800944538e-06	4.886174e+00	3.438778e+00	6.311012e+00
5.222181800944537e-06	4.802309e+00	3.409019e+00	6.054924e+00
5.223004123656397e-06	4.709125e+00	3.377537e+00	5.770578e+00
5.223535731821599e-06	4.653837e+00	3.352856e+00	5.603539e+00
5.224044669566989e-06	4.611590e+00	3.326588e+00	5.476666e+00
5.224458051749353e-06	4.568409e+00	3.303749e+00	5.345335e+00
5.224855904647340e-06	4.505044e+00	3.279285e+00	5.151737e+00
5.225413327057396e-06	4.363231e+00	3.238541e+00	4.718542e+00
5.225997791164804e-06	4.115678e+00	3.182777e+00	3.964187e+00
5.226614049608441e-06	3.690015e+00	3.100227e+00	2.673411e+00
5.227172185994178e-06	3.086020e+00	2.990734e+00	8.586608e-01
5.227749638888427e-06	2.161798e+00	2.824562e+00	-1.873948e+00
5.228310516178562e-06	9.991837e-01	2.612545e+00	-5.259191e+00
5.228383495933817e-06	8.181229e-01	2.578686e+00	-5.777278e+00
5.228529455444328e-06	4.137497e-01	2.501835e+00	-6.919180e+00
5.228657510018292e-06	4.360962e-02	2.431110e+00	-7.957672e+00
5.228662188477168e-06	2.965164e-02	2.428421e+00	-7.996568e+00
5.228671545394922e-06	1.293182e-03	2.422909e+00	-8.075300e+00
5.228690259230427e-06	-5.554962e-02	2.411812e+00	-8.232973e+00
5.228701416984863e-06	-8.930588e-02	2.405113e+00	-8.326341e+00
5.228712588210833e-06	-1.228180e-01	2.398293e+00	-8.418725e+00
5.228723081729343e-06	-1.540565e-01	2.391754e+00	-8.504569e+00
5.228739354176472e-06	-2.022476e-01	2.381317e+00	-8.636540e+00
5.228772310322857e-06	-2.996407e-01	2.359535e+00	-8.902509e+00
5.228781048697901e-06	-3.217545e-01	2.353493e+00	-8.960900e+00
5.228798525447987e-06	-3.529282e-01	2.341293e+00	-9.035913e+00
5.228802894635508e-06	-3.572426e-01	2.338223e+00	-9.043652e+00
5.228829109760638e-06	-3.676376e-01	2.319725e+00	-9.040915e+00
5.228864063260810e-06	-3.733864e-01	2.295132e+00	-9.011344e+00
5.228933970261155e-06	-3.724365e-01	2.246578e+00	-8.912573e+00
5.229073784261844e-06	-3.614044e-01	2.152355e+00	-8.687118e+00
5.229336080580980e-06	-3.388596e-01	1.986156e+00	-8.262343e+00
5.229860673219252e-06	-2.959290e-01	1.684971e+00	-7.432377e+00
5.230483622456458e-06	-2.502365e-01	1.371296e+00	-6.483583e+00
5.231041252891715e-06	-2.150536e-01	1.132706e+00	-5.674965e+00
5.231635328699035e-06	-1.834068e-01	9.196358e-01	-4.858774e+00
5.232187090377381e-06	-1.588402e-01	7.552185e-01	-4.143798e+00
5.232775496666476e-06	-1.372719e-01	6.118279e-01	-3.429955e+00
5.233337109921146e-06	-1.205826e-01	5.017281e-01	-2.798820e+00
5.233922147206361e-06	-1.067734e-01	4.116249e-01	-2.199538e+00
5.234486591517046e-06	-9.638214e-02	3.449593e-01	-1.686953e+00
